#  HZ   S   DB   R     50.00 
! Rohde & Schwarz Vector Network Analyzer 
! Rohde-Schwarz,ZNB20-2Port,1311601062101781,3.50
! Created: UTC 7/4/2024, 8:46:14 AM
! freq[Hz]                db:S11                  ang:S11
 2.000000000000000E9    -1.709957081196682       9.527776010141855E1
 2.010000000000000E9    -1.752986175736179       8.375624666896475E1
 2.020000000000000E9    -1.791168697058885       7.215613803134777E1
 2.030000000000000E9    -1.823632139118509       6.048061418216350E1
 2.040000000000000E9    -1.851510974516237       4.874687969154004E1
 2.050000000000000E9    -1.870029118878282       3.697870302986461E1
 2.060000000000000E9    -1.880676766671230       2.519020780932624E1
 2.070000000000000E9    -1.881837338559841       1.337286098213158E1
 2.080000000000000E9    -1.875667990598961       1.574521180205742
 2.090000000000000E9    -1.859563309510926      -1.017826538808964E1
 2.100000000000000E9    -1.837044379272736      -2.192210355041642E1
 2.110000000000000E9    -1.807137491594381      -3.354457783909010E1
 2.120000000000000E9    -1.772558669313095      -4.513412510613340E1
 2.130000000000000E9    -1.734566438836876      -5.660354991216978E1
 2.140000000000000E9    -1.697565096329812      -6.797803010195788E1
 2.150000000000000E9    -1.657895786072575      -7.927268979683417E1
 2.160000000000000E9    -1.622213015360440      -9.045821882512560E1
 2.170000000000000E9    -1.588744678097393      -1.015510357042827E2
 2.180000000000000E9    -1.559509551615807      -1.125876781502174E2
 2.190000000000000E9    -1.535732530980178      -1.235134788896303E2
 2.200000000000000E9    -1.519320487663897      -1.344229008435192E2
 2.210000000000000E9    -1.511693665527818      -1.452926017118203E2
 2.220000000000000E9    -1.510574062981565      -1.561600831686314E2
 2.230000000000000E9    -1.513835677316893      -1.670352095163002E2
 2.240000000000000E9    -1.529345565780919      -1.779266589035565E2
 2.250000000000000E9    -1.550222924044746       1.711144670347223E2
 2.260000000000000E9    -1.580997739124159       1.600673039178293E2
 2.270000000000000E9    -1.620975810773490       1.489175867863025E2
 2.280000000000000E9    -1.671152460858756       1.376137055826506E2
 2.290000000000000E9    -1.729814545230886       1.261022210306722E2
 2.300000000000000E9    -1.801674594218841       1.143939156044354E2
 2.310000000000000E9    -1.887324077245372       1.023659913994921E2
 2.320000000000000E9    -1.990782742013794       8.991192618984672E1
 2.330000000000000E9    -2.128294472663624       7.695675599726614E1
 2.340000000000000E9    -2.315172948735991       6.325067954491030E1
 2.350000000000000E9    -2.601578162509784       4.835029500226123E1
 2.360000000000000E9    -3.140371896586318       3.159647180285572E1
 2.370000000000000E9    -4.365006268667634       1.169237570147702E1
 2.380000000000000E9    -8.068429966068077      -1.070749696296757E1
 2.390000000000000E9    -1.593453886406546E1     3.674670213200617E1
 2.400000000000000E9    -6.808629701135906       4.834561233401242E1
 2.410000000000000E9    -4.067421394048549       2.587274301276583E1
 2.420000000000000E9    -3.114382005944731       6.585709997227965
 2.430000000000000E9    -2.691614542731502      -1.000583459782001E1
 2.440000000000000E9    -2.453644160783783      -2.497017055778296E1
 2.450000000000000E9    -2.304809397531309      -3.899522711225676E1
 2.460000000000000E9    -2.198500197080741      -5.230300977352680E1
 2.470000000000000E9    -2.109082853650375      -6.513453983872412E1
 2.480000000000000E9    -2.025822196901100      -7.761546929551827E1
 2.490000000000000E9    -1.955882566062383      -8.981300346076226E1
 2.500000000000000E9    -1.893720570892760      -1.017501750740724E2
 2.510000000000000E9    -1.841729239627628      -1.134297246589831E2
 2.520000000000000E9    -1.790886217886809      -1.249421352408769E2
 2.530000000000000E9    -1.750227997413323      -1.362760286810651E2
 2.540000000000000E9    -1.715789374575130      -1.474626509079217E2
 2.550000000000000E9    -1.690919564030938      -1.585241861029114E2
 2.560000000000000E9    -1.671993582328519      -1.694613664325226E2
 2.570000000000000E9    -1.660489468717389       1.796643322544898E2
 2.580000000000000E9    -1.657845571783524       1.688551062677837E2
 2.590000000000000E9    -1.664468873789174       1.580828991209043E2
 2.600000000000000E9    -1.674491113082903       1.473484062910977E2
 2.610000000000000E9    -1.695747572583928       1.365965480355056E2
 2.620000000000000E9    -1.721084816555790       1.258126891323206E2
 2.630000000000000E9    -1.752676352810729       1.149942021350725E2
 2.640000000000000E9    -1.789248307908977       1.041139776693081E2
 2.650000000000000E9    -1.832505768654784       9.314942031477379E1
 2.660000000000000E9    -1.874521885413043       8.208510558926507E1
 2.670000000000000E9    -1.916523009432376       7.092749827238535E1
 2.680000000000000E9    -1.963472924763128       5.970233897811669E1
 2.690000000000000E9    -2.004602441879023       4.833778519486102E1
 2.700000000000000E9    -2.045696329383950       3.682951002899497E1
 2.710000000000000E9    -2.087772042502453       2.522897987348302E1
 2.720000000000000E9    -2.117788446444564       1.351262287019777E1
 2.730000000000000E9    -2.145103697686731       1.710926418719207
 2.740000000000000E9    -2.163255425163292      -1.017640961701627E1
 2.750000000000000E9    -2.175772797972416      -2.217019282674640E1
 2.760000000000000E9    -2.176876402629136      -3.419469728063313E1
 2.770000000000000E9    -2.173060183095038      -4.623373925049062E1
 2.780000000000000E9    -2.157765114732704      -5.826211544058590E1
 2.790000000000000E9    -2.140758946947444      -7.031821326833708E1
 2.800000000000000E9    -2.116867075634570      -8.232306337820975E1
 2.810000000000000E9    -2.084790923232306      -9.427347696241661E1
 2.820000000000000E9    -2.056196630212813      -1.061435869239261E2
 2.830000000000000E9    -2.023825074789884      -1.179669966341380E2
 2.840000000000000E9    -1.992356691815492      -1.297233035992048E2
 2.850000000000000E9    -1.966373821856490      -1.414051031571219E2
 2.860000000000000E9    -1.945795691277614      -1.529759403103594E2
 2.870000000000000E9    -1.935977476276240      -1.645211837958772E2
 2.880000000000000E9    -1.936035838224862      -1.760699625878246E2
 2.890000000000000E9    -1.948152113744398       1.723619859315068E2
 2.900000000000000E9    -1.975536569186201       1.607709525361683E2
 2.910000000000000E9    -2.025243634035050       1.490821866144622E2
 2.920000000000000E9    -2.107225260739151       1.372693394101238E2
 2.930000000000000E9    -2.232514715447692       1.251073005086761E2
 2.940000000000000E9    -2.431637182333839       1.125484815122085E2
 2.950000000000000E9    -2.762567862781723       9.933445815760344E1
 2.960000000000000E9    -3.346163858208003       8.529224260908262E1
 2.970000000000000E9    -4.490530305859043       7.026449973863153E1
 2.980000000000000E9    -6.997067206867071       5.741088603158033E1
 2.990000000000000E9    -1.080715115434216E1     6.868922708736393E1
 3.000000000000000E9    -8.034206791349835       9.144444927707697E1
 3.010000000000000E9    -4.940805665429076       8.072678619928043E1
 3.020000000000000E9    -3.603142661626430       6.473226801965863E1
 3.030000000000000E9    -3.009117278276253       4.950032387982642E1
 3.040000000000000E9    -2.720996781389722       3.527695104261668E1
 3.050000000000000E9    -2.575301097498871       2.181466361873330E1
 3.060000000000000E9    -2.494946103188135       8.818471152679528
 3.070000000000000E9    -2.449075592082178      -3.930432864687994
 3.080000000000000E9    -2.417479493166776      -1.652580800231533E1
 3.090000000000000E9    -2.402111080055091      -2.902976679279643E1
 3.100000000000000E9    -2.385800505370073      -4.149889939969200E1
 3.110000000000000E9    -2.374534334389400      -5.391067014663404E1
 3.120000000000000E9    -2.356457705996250      -6.630075854044978E1
 3.130000000000000E9    -2.335166551175258      -7.862160503819084E1
 3.140000000000000E9    -2.306421052867141      -9.093900448930339E1
 3.150000000000000E9    -2.281424820634739      -1.031572803264239E2
 3.160000000000000E9    -2.243813426787505      -1.153115649605193E2
 3.170000000000000E9    -2.209969782690266      -1.273923394790814E2
 3.180000000000000E9    -2.170467436155120      -1.393915655106165E2
 3.190000000000000E9    -2.135956787546465      -1.512855478170896E2
 3.200000000000000E9    -2.098379577852118      -1.630226844275882E2
 3.210000000000000E9    -2.063191879410345      -1.746150537551732E2
 3.220000000000000E9    -2.032383582162503       1.739208233316665E2
 3.230000000000000E9    -2.003925645531421       1.625908817652954E2
 3.240000000000000E9    -1.982451259639476       1.513569741073492E2
 3.250000000000000E9    -1.961120441531402       1.402961702940024E2
 3.260000000000000E9    -1.950673874475127       1.293475252201877E2
 3.270000000000000E9    -1.941038865054129       1.184559983329818E2
 3.280000000000000E9    -1.941149664991735       1.076664451711444E2
 3.290000000000000E9    -1.940256485010735       9.695026649572435E1
 3.300000000000000E9    -1.949303341935527       8.631285244410415E1
 3.310000000000000E9    -1.958716088533815       7.570114015671254E1
 3.320000000000000E9    -1.974846560132861       6.509276076170775E1
 3.330000000000000E9    -1.997089890615116       5.450452880995631E1
 3.340000000000000E9    -2.019287878938955       4.391649623086759E1
 3.350000000000000E9    -2.045041675200586       3.327740481875531E1
 3.360000000000000E9    -2.072681364235696       2.260757546413371E1
 3.370000000000000E9    -2.103243826184233       1.184347760776485E1
 3.380000000000000E9    -2.136377345827302       1.014394557019270
 3.390000000000000E9    -2.165616016364230      -9.909826050277239
 3.400000000000000E9    -2.198083049033974      -2.094779000394821E1
 3.410000000000000E9    -2.230158759839934      -3.208033152614674E1
 3.420000000000000E9    -2.256700416158311      -4.333952035397169E1
 3.430000000000000E9    -2.283737488262135      -5.476329133274523E1
 3.440000000000000E9    -2.306268116417677      -6.627768612213913E1
 3.450000000000000E9    -2.323954326204773      -7.792702438075666E1
 3.460000000000000E9    -2.338571060181650      -8.966839609726884E1
 3.470000000000000E9    -2.346376132566455      -1.014980664722123E2
 3.480000000000000E9    -2.346633473033080      -1.134194262546201E2
 3.490000000000000E9    -2.344288975364252      -1.254174545867860E2
 3.500000000000000E9    -2.338175208936011      -1.374344151603601E2
 3.510000000000000E9    -2.324680320224617      -1.494443954390473E2
 3.520000000000000E9    -2.309280900458018      -1.614454708730350E2
 3.530000000000000E9    -2.283157648906552      -1.734210352612244E2
 3.540000000000000E9    -2.262203524778482       1.746844404700289E2
 3.550000000000000E9    -2.236657128874589       1.628823219075996E2
 3.560000000000000E9    -2.216320077407156       1.512026415096314E2
 3.570000000000000E9    -2.187949079834228       1.396405113437532E2
 3.580000000000000E9    -2.165667252138880       1.282076724438139E2
 3.590000000000000E9    -2.140420906394504       1.168755414489024E2
 3.600000000000000E9    -2.121611330038977       1.057149029307476E2
 3.610000000000000E9    -2.105302133904114       9.470591290021095E1
 3.620000000000000E9    -2.090713419254024       8.381257607962102E1
 3.630000000000000E9    -2.080814120571667       7.304467955231152E1
 3.640000000000000E9    -2.074241985067981       6.237171834533014E1
 3.650000000000000E9    -2.071707443898547       5.180509610046939E1
 3.660000000000000E9    -2.076787983701466       4.130159529441985E1
 3.670000000000000E9    -2.080447356754226       3.085120298526389E1
 3.680000000000000E9    -2.088726846388022       2.045154104398319E1
 3.690000000000000E9    -2.098874809984062       1.004846337704589E1
 3.700000000000000E9    -2.116540498280096      -3.137804774664668E-1
 3.710000000000000E9    -2.136748744053929      -1.075701060606803E1
 3.720000000000000E9    -2.161833377246082      -2.124978743593054E1
 3.730000000000000E9    -2.185497129776116      -3.180630536778144E1
 3.740000000000000E9    -2.216968629944464      -4.246331307764599E1
 3.750000000000000E9    -2.247388857795905      -5.323571733726105E1
 3.760000000000000E9    -2.280124971312529      -6.417892617258437E1
 3.770000000000000E9    -2.311565204542234      -7.524606255183386E1
 3.780000000000000E9    -2.347387925301025      -8.647856034301927E1
 3.790000000000000E9    -2.380738185280602      -9.788068086942592E1
 3.800000000000000E9    -2.410786133265125      -1.094833401785589E2
 3.810000000000000E9    -2.439273569254590      -1.212480939082840E2
 3.820000000000000E9    -2.462850532301613      -1.331859950476762E2
 3.830000000000000E9    -2.480640491290221      -1.452487715044878E2
 3.840000000000000E9    -2.492534777391492      -1.574334030436574E2
 3.850000000000000E9    -2.502328554585697      -1.697310648676727E2
 3.860000000000000E9    -2.502841316798043       1.778938370983090E2
 3.870000000000000E9    -2.496223757975672       1.655384850890306E2
 3.880000000000000E9    -2.481640707704718       1.532230847849468E2
 3.890000000000000E9    -2.465337184302554       1.409402679123899E2
 3.900000000000000E9    -2.441558508940899       1.287664006565041E2
 3.910000000000000E9    -2.411324301913425       1.167283196270340E2
 3.920000000000000E9    -2.380189019011248       1.048567937804791E2
 3.930000000000000E9    -2.346046386660795       9.317223672649453E1
 3.940000000000000E9    -2.314708304138564       8.167738298745012E1
 3.950000000000000E9    -2.279089033205939       7.038361374719626E1
 3.960000000000000E9    -2.250695406336969       5.929453551905458E1
 3.970000000000000E9    -2.222500402759701       4.839236591728824E1
 3.980000000000000E9    -2.198066623544316       3.767782308274300E1
 3.990000000000000E9    -2.178945529814940       2.711085041799860E1
 4.000000000000000E9    -2.162116554485577       1.667300757660201E1
