# Version 1.00
#
freq[Hz];db:Trc1_S11;ang:Trc1_S11;db:Trc2_S21;ang:Trc2_S21;db:Trc3_S21;ang:Trc3_S21;db:Trc4_S22;ang:Trc4_S22;db:Mem5[Trc2]_S21;ang:Mem5[Trc2]_S21;
2.600000000000000E+09;-5.207188692306004E+00;-1.380340618039224E+01;1.629219492064495E+01;3.639220861222896E+01;1.629219492064495E+01;3.639220861222896E+01;-6.523255335519048E+00;-1.034953206401085E+02;5.875381254601205E+01;5.590136416300765E+00;
2.601000000000000E+09;-5.228776733121424E+00;-1.412136343746799E+01;1.630926151030547E+01;3.544394190827310E+01;1.630926151030547E+01;3.544394190827310E+01;-6.533727249309571E+00;-1.054248564713336E+02;5.829970060370935E+01;6.637685966987369E+00;
2.602000000000000E+09;-5.238332637319024E+00;-1.438952222944332E+01;1.632399646518074E+01;3.435504007412250E+01;1.632399646518074E+01;3.435504007412250E+01;-6.540497479169126E+00;-1.072343636986391E+02;5.834211516455704E+01;5.470699894186045E+00;
2.603000000000000E+09;-5.248011216246081E+00;-1.462450119399851E+01;1.633628327517431E+01;3.317314285739024E+01;1.633628327517431E+01;3.317314285739024E+01;-6.525216487317261E+00;-1.090607427832386E+02;5.843676251362464E+01;5.518854381021189E+00;
2.604000000000000E+09;-5.264820814681378E+00;-1.482255732511767E+01;1.635001085005099E+01;3.199725182986771E+01;1.635001085005099E+01;3.199725182986771E+01;-6.525736731609905E+00;-1.108819910683568E+02;5.828202319974036E+01;5.410608723094036E+00;
2.605000000000000E+09;-5.281336404237345E+00;-1.505261716018292E+01;1.635986303561505E+01;3.075930384329344E+01;1.635986303561505E+01;3.075930384329344E+01;-6.518182188144356E+00;-1.127118367984171E+02;5.852947654459741E+01;5.218525276507603E+00;
2.606000000000000E+09;-5.289075413734827E+00;-1.529839666852914E+01;1.636882172138747E+01;2.953751637805836E+01;1.636882172138747E+01;2.953751637805836E+01;-6.512751651630280E+00;-1.145566322396663E+02;5.864221660032482E+01;3.859098787865723E+00;
2.607000000000000E+09;-5.308611075530740E+00;-1.548709094995264E+01;1.637854604711463E+01;2.830506664218036E+01;1.637854604711463E+01;2.830506664218036E+01;-6.507305605712205E+00;-1.162996837803318E+02;5.856255147473292E+01;5.545083365164797E+00;
2.608000000000000E+09;-5.327601934865754E+00;-1.568396631492042E+01;1.639031054168662E+01;2.709671127432923E+01;1.639031054168662E+01;2.709671127432923E+01;-6.507251175489546E+00;-1.180659719289105E+02;5.811485350005339E+01;7.477154673473003E+00;
2.609000000000000E+09;-5.335254871211498E+00;-1.594098838091912E+01;1.640223565412511E+01;2.587177999079467E+01;1.640223565412511E+01;2.587177999079467E+01;-6.499867994283001E+00;-1.198362648951597E+02;5.828841201875689E+01;6.426206352270406E+00;
2.610000000000000E+09;-5.348062724658864E+00;-1.617983404765901E+01;1.641389653102584E+01;2.460047069909132E+01;1.641389653102584E+01;2.460047069909132E+01;-6.498228426923443E+00;-1.217305273076720E+02;5.837983676716844E+01;5.868037459868741E+00;
2.611000000000000E+09;-5.364664768151856E+00;-1.637463701199988E+01;1.642872394574489E+01;2.338257893786352E+01;1.642872394574489E+01;2.338257893786352E+01;-6.494840047376178E+00;-1.234671128716568E+02;5.848689833231489E+01;6.189184458622894E+00;
2.612000000000000E+09;-5.382898064189195E+00;-1.662190238194492E+01;1.644085318343079E+01;2.214818652995415E+01;1.644085318343079E+01;2.214818652995415E+01;-6.497964126204621E+00;-1.252754640014702E+02;5.843657709825393E+01;4.564119327738045E+00;
2.613000000000000E+09;-5.392654888042648E+00;-1.681916274818030E+01;1.645556654820315E+01;2.091111545537732E+01;1.645556654820315E+01;2.091111545537732E+01;-6.490623093168360E+00;-1.269995593495153E+02;5.838824330582237E+01;6.738445105628023E+00;
2.614000000000000E+09;-5.404418508140418E+00;-1.701423348960308E+01;1.646766614006034E+01;1.971884689519253E+01;1.646766614006034E+01;1.971884689519253E+01;-6.489209474575455E+00;-1.287165286437777E+02;5.836791293616612E+01;4.885590321322804E+00;
2.615000000000000E+09;-5.419009688473927E+00;-1.728953097199029E+01;1.647729267760440E+01;1.848016003585889E+01;1.647729267760440E+01;1.848016003585889E+01;-6.488927375388736E+00;-1.304782427967631E+02;5.838207792703359E+01;5.528019980045624E+00;
2.616000000000000E+09;-5.435609478429964E+00;-1.748087321536770E+01;1.649453927884772E+01;1.721807924828658E+01;1.649453927884772E+01;1.721807924828658E+01;-6.485178904917447E+00;-1.322777652370512E+02;5.827808285296265E+01;4.973157133237661E+00;
2.617000000000000E+09;-5.452265846209000E+00;-1.772994941190530E+01;1.651052800787800E+01;1.601975911370157E+01;1.651052800787800E+01;1.601975911370157E+01;-6.489275768686605E+00;-1.340067038550427E+02;5.822395584610802E+01;6.194416941639433E+00;
2.618000000000000E+09;-5.468962737525055E+00;-1.798800557409766E+01;1.652045333541139E+01;1.478318815229856E+01;1.652045333541139E+01;1.478318815229856E+01;-6.487057032727758E+00;-1.357035969337529E+02;5.853409808743628E+01;5.972478458539980E+00;
2.619000000000000E+09;-5.476520131993708E+00;-1.818374432386287E+01;1.653973633388927E+01;1.356220691137082E+01;1.653973633388927E+01;1.356220691137082E+01;-6.495699193110589E+00;-1.374692355599391E+02;5.813362330632052E+01;6.746862766682487E+00;
2.620000000000000E+09;-5.492410864974725E+00;-1.842588705579369E+01;1.655301321620115E+01;1.232667166693893E+01;1.655301321620115E+01;1.232667166693893E+01;-6.494631943009131E+00;-1.391715827171743E+02;5.837168018343047E+01;5.373445545691092E+00;
2.621000000000000E+09;-5.507244464681534E+00;-1.863940015809279E+01;1.656956587778876E+01;1.109260956614688E+01;1.656956587778876E+01;1.109260956614688E+01;-6.494475016722370E+00;-1.409138542592649E+02;5.859201931001635E+01;5.499849942377249E+00;
2.622000000000000E+09;-5.525076283463459E+00;-1.888409930927958E+01;1.658698185515697E+01;9.895290274374696E+00;1.658698185515697E+01;9.895290274374696E+00;-6.498198653893727E+00;-1.426131955237446E+02;5.834685335759836E+01;5.718174643061732E+00;
2.623000000000000E+09;-5.540048827484712E+00;-1.907917959828368E+01;1.660282169717668E+01;8.654894079530578E+00;1.660282169717668E+01;8.654894079530578E+00;-6.506364059319472E+00;-1.443042746024142E+02;5.815098857216499E+01;4.663685051270913E+00;
2.624000000000000E+09;-5.559690222815928E+00;-1.933941565445307E+01;1.662118873955590E+01;7.432691904396191E+00;1.662118873955590E+01;7.432691904396191E+00;-6.507956607717333E+00;-1.459771241034424E+02;5.799836619276549E+01;6.304058770851965E+00;
2.625000000000000E+09;-5.583184647901749E+00;-1.956598877928827E+01;1.663494055438961E+01;6.222653177079026E+00;1.663494055438961E+01;6.222653177079026E+00;-6.510243638802359E+00;-1.476390828834008E+02;5.821253308491895E+01;6.203828628975349E+00;
2.626000000000000E+09;-5.587598054991556E+00;-1.979087450083318E+01;1.665429831800362E+01;4.993414509763780E+00;1.665429831800362E+01;4.993414509763780E+00;-6.528969194380389E+00;-1.493319392388378E+02;5.833397811482696E+01;3.890220828743641E+00;
2.627000000000000E+09;-5.610736169972834E+00;-2.005283625431041E+01;1.666862557457393E+01;3.769818219952809E+00;1.666862557457393E+01;3.769818219952809E+00;-6.523889099458751E+00;-1.511255498978323E+02;5.817769251202016E+01;4.709187061456058E+00;
2.628000000000000E+09;-5.620230046445340E+00;-2.026706453253226E+01;1.668739410710383E+01;2.526223642435363E+00;1.668739410710383E+01;2.526223642435363E+00;-6.522431138903819E+00;-1.527014030800103E+02;5.834870293980530E+01;6.054583152385815E+00;
2.629000000000000E+09;-5.643231906509689E+00;-2.052587159751900E+01;1.670689565188729E+01;1.312344928755036E+00;1.670689565188729E+01;1.312344928755036E+00;-6.539957511067758E+00;-1.543778904163090E+02;5.802162729372444E+01;6.124589800584274E+00;
2.630000000000000E+09;-5.662719036598354E+00;-2.070507574003407E+01;1.672304049404352E+01;1.034770983526709E-01;1.672304049404352E+01;1.034770983526709E-01;-6.546311936030528E+00;-1.560540690755823E+02;5.818550102540765E+01;4.350968177921003E+00;
2.631000000000000E+09;-5.677527504016304E+00;-2.101801135694956E+01;1.674256337162407E+01;-1.101461659478052E+00;1.674256337162407E+01;-1.101461659478052E+00;-6.558365074734132E+00;-1.577720196980967E+02;5.816837521346063E+01;2.954135612153237E+00;
2.632000000000000E+09;-5.693909309189201E+00;-2.121529792823494E+01;1.676127953331884E+01;-2.339998079337104E+00;1.676127953331884E+01;-2.339998079337104E+00;-6.562111499085274E+00;-1.593534479893873E+02;5.825543837061537E+01;5.825591583111152E+00;
2.633000000000000E+09;-5.716962605545691E+00;-2.148899036531419E+01;1.678209958500205E+01;-3.542767255215046E+00;1.678209958500205E+01;-3.542767255215046E+00;-6.576307920583142E+00;-1.610133501031457E+02;5.810208205655582E+01;5.128604592214627E+00;
2.634000000000000E+09;-5.731188169466948E+00;-2.169642937488684E+01;1.680104645012324E+01;-4.789873795585173E+00;1.680104645012324E+01;-4.789873795585173E+00;-6.585535745638726E+00;-1.626768655297535E+02;5.816707659862345E+01;6.207722181347044E+00;
2.635000000000000E+09;-5.753922890073486E+00;-2.198879280840638E+01;1.681712428805374E+01;-5.996489379145687E+00;1.681712428805374E+01;-5.996489379145687E+00;-6.605625072139239E+00;-1.642698819056408E+02;5.802783036529759E+01;4.244358740425614E+00;
2.636000000000000E+09;-5.764753739883059E+00;-2.217491111012857E+01;1.683981448904235E+01;-7.250369465128109E+00;1.683981448904235E+01;-7.250369465128109E+00;-6.617297459207563E+00;-1.658923308870743E+02;5.807564500819788E+01;3.639531825961280E+00;
2.637000000000000E+09;-5.783278700976257E+00;-2.244042548299942E+01;1.686023901043939E+01;-8.451101462504488E+00;1.686023901043939E+01;-8.451101462504488E+00;-6.637459132025069E+00;-1.675551371345563E+02;5.832557671986812E+01;4.778951078158771E+00;
2.638000000000000E+09;-5.814948958071459E+00;-2.261668491631992E+01;1.687960217271786E+01;-9.660730469901278E+00;1.687960217271786E+01;-9.660730469901278E+00;-6.642078764426202E+00;-1.691415455469414E+02;5.809602853496310E+01;5.097972413201242E+00;
2.639000000000000E+09;-5.822568762314798E+00;-2.287092566338016E+01;1.690400670380986E+01;-1.090917009798640E+01;1.690400670380986E+01;-1.090917009798640E+01;-6.674617789548530E+00;-1.707852969372132E+02;5.807624011871382E+01;4.581380359371066E+00;
2.640000000000000E+09;-5.850968434138415E+00;-2.312866760885928E+01;1.692491431492724E+01;-1.211118793253321E+01;1.692491431492724E+01;-1.211118793253321E+01;-6.688871415641627E+00;-1.724358371257114E+02;5.795713534017342E+01;5.363647116461128E+00;
2.641000000000000E+09;-5.862166100187461E+00;-2.339860712088815E+01;1.694746535890506E+01;-1.336039846487486E+01;1.694746535890506E+01;-1.336039846487486E+01;-6.703013228776332E+00;-1.740048153240449E+02;5.820988313878594E+01;4.900690046592675E+00;
2.642000000000000E+09;-5.882439260498860E+00;-2.362005513220533E+01;1.696898792886429E+01;-1.458055672083075E+01;1.696898792886429E+01;-1.458055672083075E+01;-6.722242138676629E+00;-1.756179288930427E+02;5.811632636302949E+01;4.157474013888922E+00;
2.643000000000000E+09;-5.909879770245689E+00;-2.384596982549750E+01;1.699413382864481E+01;-1.579961303078582E+01;1.699413382864481E+01;-1.579961303078582E+01;-6.741063533785129E+00;-1.772222893059106E+02;5.800132605419322E+01;5.868437964548645E+00;
2.644000000000000E+09;-5.932896141154576E+00;-2.414258952259537E+01;1.701353406040904E+01;-1.702112679624982E+01;1.701353406040904E+01;-1.702112679624982E+01;-6.772437638292419E+00;-1.787466930743719E+02;5.786451036651129E+01;3.702039381056239E+00;
2.645000000000000E+09;-5.949845840571715E+00;-2.435995440668957E+01;1.703926162696531E+01;-1.827116592318987E+01;1.703926162696531E+01;-1.827116592318987E+01;-6.795142971910320E+00;1.795682638938661E+02;5.813748460399562E+01;7.036656875161757E+00;
2.646000000000000E+09;-5.973275573624473E+00;-2.459691835524729E+01;1.706228771922401E+01;-1.952121623585744E+01;1.706228771922401E+01;-1.952121623585744E+01;-6.828571766964149E+00;1.779830737322805E+02;5.826787796125744E+01;4.902044261216175E+00;
2.647000000000000E+09;-5.998067642614605E+00;-2.484336955600095E+01;1.708530204673461E+01;-2.073182247534800E+01;1.708530204673461E+01;-2.073182247534800E+01;-6.848380777259494E+00;1.764380102240856E+02;5.800014074236816E+01;6.285368804233583E+00;
2.648000000000000E+09;-6.018438185899812E+00;-2.511880972085196E+01;1.710788441200350E+01;-2.196790085924832E+01;1.710788441200350E+01;-2.196790085924832E+01;-6.878606238949244E+00;1.748528579974419E+02;5.834532768376513E+01;5.296140643415120E+00;
2.649000000000000E+09;-6.042282031150807E+00;-2.536658805973817E+01;1.713313382831690E+01;-2.320194338730466E+01;1.713313382831690E+01;-2.320194338730466E+01;-6.906482201725435E+00;1.732781312214114E+02;5.805062934221652E+01;3.818182847216256E+00;
2.650000000000000E+09;-6.067489725092411E+00;-2.556591895454950E+01;1.715690001087100E+01;-2.444539281811620E+01;1.715690001087100E+01;-2.444539281811620E+01;-6.936896753784647E+00;1.716589105539794E+02;5.795530175084826E+01;4.536347147416815E+00;
2.651000000000000E+09;-6.086354311493082E+00;-2.584912465178300E+01;1.718297228287492E+01;-2.569748250418707E+01;1.718297228287492E+01;-2.569748250418707E+01;-6.974424004495200E+00;1.701116309712885E+02;5.816968140722526E+01;6.457315665289344E+00;
2.652000000000000E+09;-6.113927863594331E+00;-2.611198322623830E+01;1.720857673671569E+01;-2.693048980209490E+01;1.720857673671569E+01;-2.693048980209490E+01;-7.016266474152877E+00;1.685368780901365E+02;5.796677574541118E+01;4.900993875664439E+00;
2.653000000000000E+09;-6.137044674893940E+00;-2.633671113736986E+01;1.723552942842183E+01;-2.818558630362234E+01;1.723552942842183E+01;-2.818558630362234E+01;-7.030930909137018E+00;1.670516117059047E+02;5.801004406961546E+01;5.448408850315023E+00;
2.654000000000000E+09;-6.163068239659621E+00;-2.660963010906760E+01;1.725759979817689E+01;-2.943470921655809E+01;1.725759979817689E+01;-2.943470921655809E+01;-7.081728187848438E+00;1.654562450322846E+02;5.788779320853187E+01;4.081854202332849E+00;
2.655000000000000E+09;-6.188278505764617E+00;-2.679667638896909E+01;1.728911350675229E+01;-3.066288893373897E+01;1.728911350675229E+01;-3.066288893373897E+01;-7.118084268490719E+00;1.638471944806273E+02;5.823705942649006E+01;5.104994788072760E+00;
2.656000000000000E+09;-6.212109292649112E+00;-2.706294450238067E+01;1.731350794053742E+01;-3.195791488676470E+01;1.731350794053742E+01;-3.195791488676470E+01;-7.155961921279390E+00;1.622920794162401E+02;5.772419144309915E+01;5.610822130322293E+00;
2.657000000000000E+09;-6.239830769527799E+00;-2.731101618876611E+01;1.733985421979398E+01;-3.319307832204567E+01;1.733985421979398E+01;-3.319307832204567E+01;-7.199924769814245E+00;1.606958467611415E+02;5.795500611066817E+01;4.371936455649457E+00;
2.658000000000000E+09;-6.268339272462010E+00;-2.753180149470111E+01;1.737024544587079E+01;-3.445851745903246E+01;1.737024544587079E+01;-3.445851745903246E+01;-7.251569841285555E+00;1.592324443762394E+02;5.809886598366624E+01;6.475649863175029E+00;
2.659000000000000E+09;-6.295245908504051E+00;-2.780983395322941E+01;1.739452138223216E+01;-3.571552246906922E+01;1.739452138223216E+01;-3.571552246906922E+01;-7.299768035877806E+00;1.575899782687713E+02;5.808352544276286E+01;5.187042306322565E+00;
2.660000000000000E+09;-6.328164188954179E+00;-2.802384319350621E+01;1.742147551185621E+01;-3.696150647981434E+01;1.742147551185621E+01;-3.696150647981434E+01;-7.337585383940734E+00;1.560079951989543E+02;5.810147715118117E+01;4.572714816425814E+00;
2.661000000000000E+09;-6.349213333681405E+00;-2.832173733918339E+01;1.744620701868276E+01;-3.824980467340637E+01;1.744620701868276E+01;-3.824980467340637E+01;-7.386922211674807E+00;1.544806359785105E+02;5.791734126364932E+01;4.741355950815885E+00;
2.662000000000000E+09;-6.380416735356258E+00;-2.851783547920407E+01;1.747257023062226E+01;-3.950250096122258E+01;1.747257023062226E+01;-3.950250096122258E+01;-7.439535575328656E+00;1.529284377686854E+02;5.794095549871867E+01;5.103023706999832E+00;
2.663000000000000E+09;-6.407373785339058E+00;-2.868449183424493E+01;1.750271904522646E+01;-4.076750804836368E+01;1.750271904522646E+01;-4.076750804836368E+01;-7.496331410730264E+00;1.514024827174020E+02;5.795536077877777E+01;5.140262738714396E+00;
2.664000000000000E+09;-6.430001897534003E+00;-2.891333004062679E+01;1.753254396306154E+01;-4.204779707640093E+01;1.753254396306154E+01;-4.204779707640093E+01;-7.534578772549647E+00;1.498109422707727E+02;5.790446257444437E+01;4.959098138525524E+00;
2.665000000000000E+09;-6.462291453652325E+00;-2.918561197530148E+01;1.755859665673853E+01;-4.332379750056781E+01;1.755859665673853E+01;-4.332379750056781E+01;-7.604594606089442E+00;1.483058302114559E+02;5.794946853965718E+01;4.923435168510993E+00;
2.666000000000000E+09;-6.500969158034753E+00;-2.945304813825068E+01;1.758967642346887E+01;-4.460553611504475E+01;1.758967642346887E+01;-4.460553611504475E+01;-7.654485711758097E+00;1.467613264356399E+02;5.790900988108596E+01;3.494427392867411E+00;
2.667000000000000E+09;-6.524746849168409E+00;-2.959711112485122E+01;1.761908265807170E+01;-4.586160221200190E+01;1.761908265807170E+01;-4.586160221200190E+01;-7.708926707296975E+00;1.451587094691461E+02;5.791187863201050E+01;3.423363333398486E+00;
2.668000000000000E+09;-6.556453185390532E+00;-2.985656835455245E+01;1.764211982850627E+01;-4.717616277131212E+01;1.764211982850627E+01;-4.717616277131212E+01;-7.775997409873794E+00;1.436115347505714E+02;5.761316168780220E+01;6.325299425522148E+00;
2.669000000000000E+09;-6.585156007387188E+00;-3.001801910352928E+01;1.767199489469619E+01;-4.843848137702508E+01;1.767199489469619E+01;-4.843848137702508E+01;-7.839716500368934E+00;1.421158842129857E+02;5.800201859097073E+01;3.813849275107674E+00;
2.670000000000000E+09;-6.618434383151640E+00;-3.027299974960829E+01;1.770214421786409E+01;-4.971436045725297E+01;1.770214421786409E+01;-4.971436045725297E+01;-7.898775412748993E+00;1.404849349581112E+02;5.775318692689324E+01;5.991383054446369E+00;
2.671000000000000E+09;-6.650998101839734E+00;-3.051236398225652E+01;1.773081797759997E+01;-5.100011773842758E+01;1.773081797759997E+01;-5.100011773842758E+01;-7.968999434129453E+00;1.389501451310235E+02;5.781750833733831E+01;6.215448911108260E+00;
2.672000000000000E+09;-6.674502922761948E+00;-3.069673274449739E+01;1.775800527596704E+01;-5.231835794412907E+01;1.775800527596704E+01;-5.231835794412907E+01;-8.048117624342243E+00;1.375006976495610E+02;5.784325448235606E+01;5.390595260868299E+00;
2.673000000000000E+09;-6.708103928778827E+00;-3.091601646956551E+01;1.778860469375382E+01;-5.359415828448967E+01;1.778860469375382E+01;-5.359415828448967E+01;-8.112523781597075E+00;1.358569206256180E+02;5.796130784342413E+01;6.244116671508950E+00;
2.674000000000000E+09;-6.749425787110372E+00;-3.108602711722020E+01;1.781866354719780E+01;-5.489037218790758E+01;1.781866354719780E+01;-5.489037218790758E+01;-8.184271690032384E+00;1.343393743357049E+02;5.771977006712611E+01;5.116780698280438E+00;
2.675000000000000E+09;-6.777691328728453E+00;-3.135946198956470E+01;1.784190044044795E+01;-5.616652183868189E+01;1.784190044044795E+01;-5.616652183868189E+01;-8.256108978992788E+00;1.327341329408374E+02;5.776903373118494E+01;3.838954583520635E+00;
2.676000000000000E+09;-6.815457295312610E+00;-3.157251642537746E+01;1.787463311997331E+01;-5.745720863869664E+01;1.787463311997331E+01;-5.745720863869664E+01;-8.348272959347495E+00;1.312106041940013E+02;5.768220530840992E+01;4.404550732891151E+00;
2.677000000000000E+09;-6.857998769611458E+00;-3.175178064386630E+01;1.790095905631143E+01;-5.878481321400079E+01;1.790095905631143E+01;-5.878481321400079E+01;-8.417233752430326E+00;1.296738477512980E+02;5.796577398231858E+01;4.468388898057590E+00;
2.678000000000000E+09;-6.879129052494989E+00;-3.199726016707990E+01;1.793096652446165E+01;-6.009795503610754E+01;1.793096652446165E+01;-6.009795503610754E+01;-8.492861973769667E+00;1.280782295961080E+02;5.779657240996648E+01;6.212149279692452E+00;
2.679000000000000E+09;-6.918510218122514E+00;-3.212781827562866E+01;1.796186384940187E+01;-6.141434150008926E+01;1.796186384940187E+01;-6.141434150008926E+01;-8.577637708905945E+00;1.265540381652924E+02;5.787243072688856E+01;4.286942677756856E+00;
