#  HZ   S   DB   R     50.00 
! Rohde & Schwarz Vector Network Analyzer 
! Rohde-Schwarz,ZNB8-2Port,1311601042101540,3.40
! Created: UTC 6/28/2024, 7:36:45 AM
! freq[Hz]                db:S11                  ang:S11                 db:S21                  ang:S21                 db:S12                  ang:S12                 db:S22                  ang:S22
 2.600000000000000E9    -5.215281804666784      -1.380066360556536E1     1.628824665208767E1     3.637292665907904E1    -4.232057967975156E1     3.228711811277680E1    -6.520568885008176      -1.035125532901912E2
 2.601000000000000E9    -5.228347811917939      -1.410171161155986E1     1.630743559697240E1     3.542894275616755E1    -4.253528621228109E1     3.079687695575459E1    -6.537457043698826      -1.054410563472299E2
 2.602000000000000E9    -5.246901807851031      -1.439084414674239E1     1.632242576273921E1     3.433314109481518E1    -4.213393950876480E1     3.084091244997513E1    -6.541611017565051      -1.072884237680683E2
 2.603000000000000E9    -5.255033577892555      -1.458681099598217E1     1.633225233320082E1     3.317476197978266E1    -4.229586801804881E1     2.829841881613400E1    -6.525742091503753      -1.090594655390995E2
 2.604000000000000E9    -5.267563302204021      -1.483884678124206E1     1.634807227398757E1     3.198125063287170E1    -4.240117595984002E1     2.818585581378406E1    -6.525182686660514      -1.109316539348538E2
 2.605000000000000E9    -5.280306280673123      -1.507238305795744E1     1.635862106320246E1     3.074660955290496E1    -4.221095142362141E1     2.545045491736595E1    -6.521445732872059      -1.127560302152475E2
 2.606000000000000E9    -5.294692223364016      -1.528646511635153E1     1.636573836671126E1     2.951646838043550E1    -4.239608997217350E1     2.457788127119285E1    -6.511655930582845      -1.145890773644182E2
 2.607000000000000E9    -5.308313922301506      -1.547586899833844E1     1.637711439242760E1     2.829612130961090E1    -4.220375374577631E1     2.297384945811247E1    -6.511417698447691      -1.163370616506619E2
 2.608000000000000E9    -5.327182458475295      -1.565859642499534E1     1.639018797394321E1     2.708010347820171E1    -4.232994147285461E1     2.305647101181445E1    -6.507084521578495      -1.181430243234763E2
 2.609000000000000E9    -5.338841371249269      -1.595836409693964E1     1.640026708321875E1     2.585064990308809E1    -4.208928918251768E1     2.231959882717086E1    -6.493522922653252      -1.199063763880300E2
 2.610000000000000E9    -5.345623247055200      -1.614011893339677E1     1.641470153521106E1     2.459566737920210E1    -4.222596564602435E1     1.958852867705997E1    -6.501368452515147      -1.217390098507087E2
 2.611000000000000E9    -5.363468254997114      -1.636454217719060E1     1.642830691187114E1     2.335496775195114E1    -4.213494945982905E1     1.840495360795396E1    -6.493387942399837      -1.235028455295565E2
 2.612000000000000E9    -5.381445417127156      -1.662974624002477E1     1.644133603702767E1     2.214636540050733E1    -4.230236039609669E1     1.837769536677819E1    -6.501498942342113      -1.252542647400258E2
 2.613000000000000E9    -5.394194294059038      -1.680084976461664E1     1.645446650668947E1     2.090919478233099E1    -4.213632425385258E1     1.711757582828081E1    -6.499629504297285      -1.270541337811141E2
 2.614000000000000E9    -5.405530830109471      -1.708532439730741E1     1.646831782529296E1     1.970204146479669E1    -4.248695273385569E1     1.733696042904975E1    -6.493600894973874      -1.287210318480792E2
 2.615000000000000E9    -5.419102075065483      -1.729650643212331E1     1.647637081747089E1     1.847579590476576E1    -4.217884870956705E1     1.512326028775586E1    -6.486504309883187      -1.305535293790269E2
 2.616000000000000E9    -5.432885030891550      -1.749092716885442E1     1.649580127269070E1     1.721077173536191E1    -4.211665052387733E1     1.354583622496194E1    -6.485507444215970      -1.323325412818376E2
 2.617000000000000E9    -5.453135280432838      -1.771552858421857E1     1.650951584834759E1     1.599912691356542E1    -4.212487510769122E1     1.111436384163216E1    -6.481387786476871      -1.340024590739868E2
 2.618000000000000E9    -5.468101754555609      -1.798326627220708E1     1.652125411924814E1     1.478246506436984E1    -4.222953672778505E1     1.180707739936863E1    -6.489771152857359      -1.357687980259069E2
 2.619000000000000E9    -5.476382859935764      -1.816326181902741E1     1.653937722911869E1     1.356348364332016E1    -4.185189341484517E1     9.850320054142115      -6.492374631998761      -1.375499976288731E2
 2.620000000000000E9    -5.500088965086877      -1.843314641528020E1     1.655110171881781E1     1.232585399086044E1    -4.194690106642832E1     9.521014452001932      -6.491724818003879      -1.391950622696384E2
 2.621000000000000E9    -5.508453839138482      -1.861861733090020E1     1.656778622006297E1     1.108323801851750E1    -4.184063036271312E1     7.418730690002330      -6.494322851804787      -1.409664502496137E2
 2.622000000000000E9    -5.525880141211864      -1.887867424494417E1     1.658598889316125E1     9.888039229229035      -4.186151123319259E1     5.972686658881994      -6.500124914935842      -1.426721302425547E2
 2.623000000000000E9    -5.540455607089872      -1.909348375850037E1     1.660084877730931E1     8.632825278305475      -4.206848000550523E1     3.715566845206463      -6.497709963795694      -1.443560917373905E2
 2.624000000000000E9    -5.563850201307833      -1.930355228502039E1     1.661936060204600E1     7.412442348446458      -4.180689581001816E1     4.887234235269044      -6.509214647021634      -1.460478365057396E2
 2.625000000000000E9    -5.577072356082917      -1.955976737047979E1     1.663343917459989E1     6.210900858594725      -4.166622149416879E1     1.814051564394597      -6.512521217514569      -1.477100239450937E2
 2.626000000000000E9    -5.594711819199626      -1.978936786318781E1     1.665112708122034E1     4.983737226362714      -4.160158626635821E1     1.504161227735592      -6.519095908193112      -1.494093053907146E2
 2.627000000000000E9    -5.615932652761257      -2.006403229888183E1     1.666757785659958E1     3.750873841231045      -4.186983294762877E1    -2.100802325055113E-1   -6.527155572846837      -1.511102925457878E2
 2.628000000000000E9    -5.627253982756085      -2.026748754390822E1     1.668720265874506E1     2.512805748821271      -4.163687961696287E1     2.184658452062419E-1   -6.525425750608230      -1.527414132635697E2
 2.629000000000000E9    -5.641128822443100      -2.054117982739269E1     1.670595902515835E1     1.288621312975433      -4.165927104899340E1    -2.371316347369331      -6.535141929721346      -1.544232026098568E2
 2.630000000000000E9    -5.666215007338526      -2.073158311810645E1     1.672233323194512E1     8.711485082100998E-2   -4.165051366709142E1    -3.585079200630224      -6.547487892170069      -1.560836406966937E2
 2.631000000000000E9    -5.685533290341556      -2.100033018388760E1     1.674167873648129E1    -1.110023235179275      -4.189345837327772E1    -5.146864622476505      -6.555360683294344      -1.577527935327049E2
 2.632000000000000E9    -5.693846799959745      -2.121867790028753E1     1.675982573526296E1    -2.363838113127769      -4.165600060004822E1    -5.228552830337417      -6.559627667610584      -1.593825224754656E2
 2.633000000000000E9    -5.714754797465097      -2.148757656178945E1     1.678058890011564E1    -3.563261048947973      -4.163657576516443E1    -7.349548834605550      -6.578920736821719      -1.610381113943277E2
 2.634000000000000E9    -5.733500771451214      -2.172523592830552E1     1.679924568502033E1    -4.819288489397040      -4.140089214179451E1    -8.632737667699027      -6.591685607756932      -1.626999181254918E2
 2.635000000000000E9    -5.755638513582587      -2.196696770397202E1     1.681732858517118E1    -6.013932067300149      -4.144692901377599E1    -9.186542907752091      -6.606839840092595      -1.643088025483037E2
 2.636000000000000E9    -5.767919906479094      -2.216089245554071E1     1.683840888114580E1    -7.265130613778683      -4.138236056807343E1    -1.084357491540998E1    -6.619954930446124      -1.659567527575470E2
 2.637000000000000E9    -5.787666102765455      -2.242736439151316E1     1.685723686801133E1    -8.456133299857763      -4.146670782488947E1    -1.155341631861984E1    -6.628863064173299      -1.676126324082896E2
 2.638000000000000E9    -5.812873055177558      -2.267821085364641E1     1.687975498081020E1    -9.692074283671108      -4.149671470109642E1    -1.328919983264608E1    -6.649441675646427      -1.691770112136322E2
 2.639000000000000E9    -5.825318903043178      -2.285486919162389E1     1.690134096364120E1    -1.092845817188500E1    -4.138354393947008E1    -1.525406352314772E1    -6.666242831928733      -1.708281606029638E2
 2.640000000000000E9    -5.851083647593979      -2.318299359449769E1     1.692455472124703E1    -1.214470454350728E1    -4.129564131462034E1    -1.417489707347713E1    -6.685903947194040      -1.725210306279353E2
 2.641000000000000E9    -5.866027629981577      -2.341626633615168E1     1.694596960252624E1    -1.337829028353469E1    -4.124181763388258E1    -1.678433357021096E1    -6.706177637071729      -1.740505694935244E2
 2.642000000000000E9    -5.890256586594470      -2.363315738261059E1     1.696911891168520E1    -1.460192219361810E1    -4.152691938514859E1    -1.858576944438880E1    -6.723873697750170      -1.756883861006206E2
 2.643000000000000E9    -5.917220654438950      -2.389356178130243E1     1.699321971753505E1    -1.582929326748855E1    -4.138388725391756E1    -1.921571158020585E1    -6.742351792973441      -1.772693737974924E2
 2.644000000000000E9    -5.939177569602018      -2.411517664455367E1     1.701167177412717E1    -1.703805540538406E1    -4.113243262598913E1    -2.077674395274111E1    -6.766738695978212      -1.788270030535083E2
 2.645000000000000E9    -5.950409361183752      -2.434343612574983E1     1.703856581209190E1    -1.830033328039136E1    -4.128964206468130E1    -2.064683145644356E1    -6.786438252119810       1.795323908750341E2
 2.646000000000000E9    -5.971374953805578      -2.461887009367267E1     1.706122198380963E1    -1.955091694788236E1    -4.123233464097781E1    -2.375477615811639E1    -6.824205599303451       1.779565534803250E2
 2.647000000000000E9    -6.001141728588375      -2.484714321455957E1     1.708636149325293E1    -2.075324484619373E1    -4.117619084520086E1    -2.377528634453684E1    -6.841717658870018       1.763746451566875E2
 2.648000000000000E9    -6.016932164414142      -2.511606403316035E1     1.710775734752094E1    -2.199793022079332E1    -4.130150074207458E1    -2.670609356276291E1    -6.872597679681051       1.748130303431057E2
 2.649000000000000E9    -6.043065974458296      -2.539691801372722E1     1.713285897425277E1    -2.323340341057174E1    -4.101109074371658E1    -2.703892402053809E1    -6.905338978616059       1.732447618970662E2
 2.650000000000000E9    -6.062494128991331      -2.558023394690124E1     1.715716343140895E1    -2.446655126456275E1    -4.120417263293767E1    -2.693122287143137E1    -6.936958481182243       1.716321865383609E2
 2.651000000000000E9    -6.094597442270251      -2.585809429709127E1     1.718327670575890E1    -2.571828617513313E1    -4.112268428172010E1    -2.970499320729697E1    -6.976290588730149       1.700703543513304E2
 2.652000000000000E9    -6.115953675123134      -2.607982201633205E1     1.720898599790190E1    -2.694795025460959E1    -4.086064585119067E1    -3.018724191861640E1    -7.011043520974278       1.685028673305171E2
 2.653000000000000E9    -6.138886787628478      -2.634952931004858E1     1.723445437360530E1    -2.821373419879551E1    -4.104724387561938E1    -3.001763919770656E1    -7.034188352150238       1.669294973560174E2
 2.654000000000000E9    -6.164523566852007      -2.659596991654089E1     1.725757645899272E1    -2.946477790291341E1    -4.076757385577338E1    -3.269970289444034E1    -7.079073643743140       1.653400556525270E2
 2.655000000000000E9    -6.185917593214494      -2.683352678659305E1     1.728744448436976E1    -3.069518760278225E1    -4.074116656361717E1    -3.464237714380342E1    -7.114479750115680       1.637774826272056E2
 2.656000000000000E9    -6.211319853976477      -2.702468611891152E1     1.731323099268358E1    -3.197738272710854E1    -4.098081908122851E1    -3.537329622916450E1    -7.163040894134846       1.622260840015593E2
 2.657000000000000E9    -6.246643272316436      -2.729520119608643E1     1.734031585120566E1    -3.321122220339208E1    -4.074086268607392E1    -3.614951150428732E1    -7.204787834114472       1.606478779134392E2
 2.658000000000000E9    -6.272742882820955      -2.754459773033271E1     1.736825892502193E1    -3.447369898942987E1    -4.096701096180479E1    -3.727550394912745E1    -7.239019436346924       1.591281041245978E2
 2.659000000000000E9    -6.296983537613384      -2.779517381019011E1     1.739546981610019E1    -3.573061828111248E1    -4.078294376829543E1    -3.948776057475671E1    -7.293970823882110       1.575734221449871E2
 2.660000000000000E9    -6.326957076799763      -2.802285555832608E1     1.742144444908535E1    -3.698467601471021E1    -4.078436414116753E1    -3.930916938902048E1    -7.336884282783485       1.560470127789156E2
 2.661000000000000E9    -6.352914961857227      -2.828287511537827E1     1.744556345651862E1    -3.825452736815033E1    -4.060650439180360E1    -4.260302916570399E1    -7.394520820277207       1.544464293551339E2
 2.662000000000000E9    -6.376750229396164      -2.848227673923315E1     1.747486342729579E1    -3.951316121144902E1    -4.064378126921298E1    -4.389000185092948E1    -7.433373216314156       1.528607996968040E2
 2.663000000000000E9    -6.405786394162036      -2.869817247093533E1     1.750259336408894E1    -4.079170584905925E1    -4.063606295769272E1    -4.416316754064795E1    -7.487837417678975       1.513189762671313E2
 2.664000000000000E9    -6.434395635959992      -2.892235685505024E1     1.753007251323459E1    -4.206994991359561E1    -4.057969283293532E1    -4.408596532799945E1    -7.532059607550367       1.497772541679666E2
 2.665000000000000E9    -6.463488119591753      -2.914397068429620E1     1.755997059372379E1    -4.334312322119318E1    -4.047365992793796E1    -4.753528842912785E1    -7.599394008797333       1.482751909629220E2
 2.666000000000000E9    -6.499189592222691      -2.942988429244540E1     1.758754821800255E1    -4.461890708548960E1    -4.062831485815714E1    -4.814716941218811E1    -7.651503633268248       1.466788821988513E2
 2.667000000000000E9    -6.527258800053150      -2.963284624739383E1     1.761728960675662E1    -4.587810519236985E1    -4.066545650714760E1    -5.079664213666879E1    -7.717783397714745       1.450926808801017E2
 2.668000000000000E9    -6.561165670614535      -2.982592853292734E1     1.764202237704680E1    -4.717928057281923E1    -4.059308566344349E1    -5.139219583015458E1    -7.773851732462150       1.435884144409030E2
 2.669000000000000E9    -6.589227204729989      -3.003730160796712E1     1.766972258447214E1    -4.845276565488307E1    -4.038062060022374E1    -5.045281300473597E1    -7.830978067203739       1.420099579005755E2
 2.670000000000000E9    -6.621089698310088      -3.024465388414128E1     1.770305997786252E1    -4.973735424864267E1    -4.037728470706658E1    -5.227555251178090E1    -7.902126814412559       1.404726806237769E2
 2.671000000000000E9    -6.656075229309467      -3.049875950990640E1     1.772972897276260E1    -5.103148866300445E1    -4.046684548064658E1    -5.523239518191820E1    -7.965430108431153       1.389141388455257E2
 2.672000000000000E9    -6.678056052486086      -3.069856003252047E1     1.775733841376513E1    -5.232862831233576E1    -4.017927550407300E1    -5.467957871444305E1    -8.042023133403051       1.373918994183693E2
 2.673000000000000E9    -6.711522052304146      -3.092563426142875E1     1.778726261041854E1    -5.360955010966656E1    -4.032179664403188E1    -5.679049873709864E1    -8.110685132686143       1.358140942826460E2
 2.674000000000000E9    -6.751165954388406      -3.111047475408323E1     1.781829489815682E1    -5.491778641436051E1    -4.030615757652416E1    -5.810819853618831E1    -8.186791820058446       1.343187443733379E2
 2.675000000000000E9    -6.776031168960368      -3.137312835022664E1     1.784128178437455E1    -5.619241175062086E1    -4.023008973451022E1    -5.964689265817823E1    -8.256543136544735       1.327394085754441E2
 2.676000000000000E9    -6.814964413992675      -3.160587764053822E1     1.787428258639831E1    -5.748206974334850E1    -4.013460963925588E1    -6.011161438130279E1    -8.336124173308054       1.312081222024230E2
 2.677000000000000E9    -6.854951552852081      -3.179477627468185E1     1.790021072025009E1    -5.879740422977520E1    -4.012128431514061E1    -6.136067288466908E1    -8.417050465266486       1.296345768028243E2
 2.678000000000000E9    -6.881683778609248      -3.201117521225533E1     1.792848816119884E1    -6.012275979031313E1    -4.015985126261693E1    -6.253657102752896E1    -8.496285835987585       1.280594259770292E2
 2.679000000000000E9    -6.919730434607319      -3.211705008083465E1     1.796198926766195E1    -6.142966913895904E1    -3.994731671936152E1    -6.556459868260379E1    -8.570085695245401       1.265550261790577E2
 2.680000000000000E9    -6.953573269128162      -3.239594826172146E1     1.798898340700752E1    -6.269487596687736E1    -3.981562772918169E1    -6.657094551197497E1    -8.652974572359515       1.249178437888793E2
 2.681000000000000E9    -6.993321082835623      -3.255724410919859E1     1.801558563927245E1    -6.405119290167272E1    -3.992206687419242E1    -6.746845167456705E1    -8.752155371468531       1.233838761122474E2
 2.682000000000000E9    -7.034898674674375      -3.273909842077382E1     1.804658597752477E1    -6.538356661279489E1    -3.997444468362710E1    -6.903523174057342E1    -8.843972822588526       1.218070079273460E2
 2.683000000000000E9    -7.063467321660526      -3.295684667351507E1     1.807241515420753E1    -6.669923729296028E1    -3.987986841260012E1    -7.054752582090595E1    -8.930189242805515       1.202653328155279E2
 2.684000000000000E9    -7.107861943679831      -3.313655152303868E1     1.810060213900628E1    -6.801995789883962E1    -4.005146699270113E1    -7.100787017382531E1    -9.021251323045226       1.187973332412150E2
 2.685000000000000E9    -7.143724912059374      -3.329228821892799E1     1.813306678972702E1    -6.937301364281184E1    -4.012946549677255E1    -7.362831788578268E1    -9.120262864327426       1.171342099318608E2
 2.686000000000000E9    -7.188247935803495      -3.343348822611426E1     1.816414980352297E1    -7.069785728667082E1    -3.994521829125923E1    -7.419206051612102E1    -9.218081756134637       1.156351687237936E2
 2.687000000000000E9    -7.230333169973859      -3.363325296072035E1     1.819362438285401E1    -7.203901728921184E1    -3.972769854813975E1    -7.538290982905380E1    -9.314187316342249       1.140775755870607E2
 2.688000000000000E9    -7.262498920231230      -3.377954605287614E1     1.821835459709065E1    -7.339673968085688E1    -3.983826435312449E1    -7.613796278492421E1    -9.427954127468240       1.124957332545819E2
 2.689000000000000E9    -7.308956906045161      -3.396492814910838E1     1.824847727850111E1    -7.472973477310777E1    -3.987628566703142E1    -7.821510070917579E1    -9.538739756974010       1.109865235300984E2
 2.690000000000000E9    -7.344810961060665      -3.409327610950206E1     1.827369979270149E1    -7.609605920243270E1    -3.978299685356797E1    -7.983647462807434E1    -9.642024105147751       1.093928565555382E2
 2.691000000000000E9    -7.380311372464839      -3.423114239652204E1     1.829902207744149E1    -7.744294350036762E1    -3.964945683853188E1    -8.027260639896879E1    -9.750190568042253       1.079433295844468E2
