#  HZ   S   DB   R     50.00 
! Rohde & Schwarz Vector Network Analyzer 
! Rohde-Schwarz,ZNB8-2Port,1311601042101540,3.40
! Created: UTC 6/28/2024, 7:39:39 AM
! freq[Hz]                db:S11                  ang:S11                 db:S21                  ang:S21                 db:S12                  ang:S12                 db:S22                  ang:S22
 2.600000000000000E9    -4.967200688522454      -6.974271163070150       1.571918059348767E1     4.136544961200200E1    -4.253053647890144E1     3.933230502632490E1    -6.050739449363055      -9.620621886549371E1
 2.601000000000000E9    -4.987041605950658      -7.298084405527094       1.574087612272928E1     4.040916911151117E1    -4.271498882699991E1     3.754404830346193E1    -6.067498841719361      -9.820001470722255E1
 2.602000000000000E9    -5.000468419811107      -7.510779036977482       1.575689926282824E1     3.931784375949528E1    -4.269540850342867E1     3.481915087379756E1    -6.071454481738586      -1.001266383207540E2
 2.603000000000000E9    -5.009038279344765      -7.697493046991783       1.577065487446517E1     3.816113989685066E1    -4.250572096367804E1     3.461602884212783E1    -6.066341509268664      -1.019994549086052E2
 2.604000000000000E9    -5.024571659722716      -7.918846569796591       1.578656670091180E1     3.696803816214871E1    -4.293261182134123E1     3.351521987329796E1    -6.066836791692076      -1.039454635244454E2
 2.605000000000000E9    -5.033471523843296      -8.153109593280199       1.580063233916696E1     3.573620253969197E1    -4.237148573748767E1     3.208118815942601E1    -6.068850118926095      -1.058541271687017E2
 2.606000000000000E9    -5.045403263400829      -8.359761113131590       1.580977445566080E1     3.451396259535703E1    -4.268406882730632E1     3.270844681680248E1    -6.056171342745414      -1.077035452252890E2
 2.607000000000000E9    -5.060067218880916      -8.511680650167293       1.582260413299171E1     3.329703188174425E1    -4.291551474009734E1     3.116577925154771E1    -6.057657967260520      -1.095905686376797E2
 2.608000000000000E9    -5.082901776015010      -8.717808287336256       1.583581997588161E1     3.207165827036867E1    -4.255288487226391E1     2.857991043422487E1    -6.055494076091215      -1.114196856058055E2
 2.609000000000000E9    -5.089417644898112      -8.926783458437558       1.585028642962825E1     3.085216828714958E1    -4.241530474660178E1     2.758460514451015E1    -6.046682762299319      -1.133011991974883E2
 2.610000000000000E9    -5.100010854200923      -9.138889188565246       1.586348081646170E1     2.959359374745404E1    -4.249181631483050E1     2.636674840426423E1    -6.046974976817868      -1.152320005671738E2
 2.611000000000000E9    -5.114019893609835      -9.344975730301682       1.588238465646246E1     2.836865056102434E1    -4.281586606166410E1     2.419770725952346E1    -6.043016198066872      -1.170424878671346E2
 2.612000000000000E9    -5.134057924936625      -9.617515501202575       1.589416546031384E1     2.714159811744840E1    -4.296783362115284E1     2.389874760559858E1    -6.042261944781963      -1.188826036847986E2
 2.613000000000000E9    -5.148148202764229      -9.726670646759601       1.590805397691660E1     2.592745978157807E1    -4.217704201078163E1     2.281384490838735E1    -6.043401771618651      -1.207273679759579E2
 2.614000000000000E9    -5.160741284428435      -9.926502450092665       1.592184894037785E1     2.473267158708817E1    -4.215674065652588E1     2.159757991727449E1    -6.038172475650661      -1.225561650576423E2
 2.615000000000000E9    -5.169257473257545      -1.018561902790311E1     1.593305008517573E1     2.349262644897045E1    -4.255148734360722E1     2.008890305358881E1    -6.034698319110944      -1.243704617948486E2
 2.616000000000000E9    -5.188427027258273      -1.031538526859518E1     1.595243753485960E1     2.223643869418511E1    -4.229529980509095E1     2.092503852341384E1    -6.030259445976544      -1.262544527161312E2
 2.617000000000000E9    -5.203303950300215      -1.055776019555576E1     1.597015159819215E1     2.104180636206452E1    -4.242042677905302E1     1.787458325785538E1    -6.034748198879117      -1.279746584671956E2
 2.618000000000000E9    -5.219881996850817      -1.078682967307125E1     1.597960447598375E1     1.981486958139600E1    -4.239664108558646E1     1.668879353754832E1    -6.033442994792516      -1.298290760175964E2
 2.619000000000000E9    -5.226152408609265      -1.099383979840529E1     1.600000819711991E1     1.858910656516702E1    -4.234383289109139E1     1.641353767632072E1    -6.032485577396820      -1.316085176172193E2
 2.620000000000000E9    -5.244548669229987      -1.121184579810697E1     1.601338462915585E1     1.735389509097429E1    -4.236154749850666E1     1.284282239523212E1    -6.040147290764839      -1.333972945679787E2
 2.621000000000000E9    -5.255930071835277      -1.137954751461303E1     1.602996970957795E1     1.613181999155038E1    -4.217411268243563E1     1.487600387210891E1    -6.030441299024880      -1.352380388331008E2
 2.622000000000000E9    -5.275199514544775      -1.161074256666684E1     1.605049769787162E1     1.494508368299774E1    -4.225648968019188E1     1.216615111129676E1    -6.036281582784849      -1.369941317531746E2
 2.623000000000000E9    -5.287843070455250      -1.178084043543767E1     1.606610980158863E1     1.371584390001032E1    -4.225839966848032E1     1.005749238516306E1    -6.030299534624372      -1.387749583206615E2
 2.624000000000000E9    -5.305659194578453      -1.199820404624650E1     1.608504481865114E1     1.248257329331211E1    -4.211383451174478E1     9.227530851217031      -6.038778538750213      -1.405468623548868E2
 2.625000000000000E9    -5.323512294206831      -1.223026628104127E1     1.610002957783237E1     1.128997660201571E1    -4.210308979000952E1     7.954992093921661      -6.038747110130807      -1.422845452701894E2
 2.626000000000000E9    -5.332376499667913      -1.241642189735621E1     1.611885659401098E1     1.007691638930871E1    -4.229522350895617E1     5.535920196863877      -6.049314917084186      -1.440222065239022E2
 2.627000000000000E9    -5.355151339548754      -1.266229944717682E1     1.613649239395880E1     8.840969598123490      -4.197838072456327E1     4.532938810574390      -6.051603949693222      -1.458781474088982E2
 2.628000000000000E9    -5.365492272114620      -1.284866017645602E1     1.615609929444912E1     7.626154358937294      -4.203039549736512E1     4.372651772519974      -6.042192360349103      -1.475189579734761E2
 2.629000000000000E9    -5.385104602170399      -1.310477958588841E1     1.617443985108406E1     6.412363519453165      -4.212416628391190E1     3.351257878332232      -6.052164447824447      -1.492975693765229E2
 2.630000000000000E9    -5.405816397330796      -1.328774313014873E1     1.619181426203568E1     5.199965812670265      -4.214348461619061E1     3.164868437178665      -6.061381339623209      -1.509860561638421E2
 2.631000000000000E9    -5.416708415998618      -1.353431644631065E1     1.621285970680359E1     4.021303982956000      -4.189927010137325E1     7.771427805915783E-1   -6.064114188188301      -1.527450243608710E2
 2.632000000000000E9    -5.424478272685871      -1.373495062178798E1     1.623317906028693E1     2.785672434119217      -4.203262357588617E1    -1.766105144795624      -6.063363621110739      -1.544160447552611E2
 2.633000000000000E9    -5.451328312504123      -1.398540356238413E1     1.625293438979966E1     1.589477371792498      -4.182958412233451E1    -1.421516918513503      -6.075329348228901      -1.561297123122613E2
 2.634000000000000E9    -5.464103074475192      -1.417107724518894E1     1.627218255239605E1     3.482350390361799E-1   -4.204224791815528E1    -2.697747356368167      -6.079181160227072      -1.578645403597209E2
 2.635000000000000E9    -5.490830757289519      -1.442270595469430E1     1.629011530639413E1    -8.288642560680328E-1   -4.170910511620900E1    -4.398992411162685      -6.099867610819681      -1.595688391699067E2
 2.636000000000000E9    -5.495775671577969      -1.460658372988634E1     1.631293050676821E1    -2.078507850612703      -4.179383100022599E1    -7.001506758578884      -6.101551452438679      -1.612225324472526E2
 2.637000000000000E9    -5.521186752071726      -1.485753056864762E1     1.633199779727950E1    -3.260804287076132      -4.181485749267797E1    -6.526708749273575      -6.113296629673631      -1.629441259971892E2
 2.638000000000000E9    -5.542216657809487      -1.502485851768690E1     1.635390021057911E1    -4.469021299678698      -4.162902584542191E1    -7.990754445866516      -6.121294658585268      -1.645840715648132E2
 2.639000000000000E9    -5.549999771908299      -1.523835398028290E1     1.637764302824302E1    -5.693863418028467      -4.156520231947685E1    -9.144673393441536      -6.138168419172927      -1.662994573540604E2
 2.640000000000000E9    -5.574702201247269      -1.550907404565746E1     1.640164327528538E1    -6.892591857217799      -4.176297862283585E1    -1.053122192073705E1    -6.145726529978560      -1.680452663047077E2
 2.641000000000000E9    -5.591377372651016      -1.571908656954354E1     1.642316434845941E1    -8.120285876697972      -4.169902346432338E1    -1.081209369902579E1    -6.153195811558197      -1.696468207308455E2
 2.642000000000000E9    -5.607873709203367      -1.594820955783294E1     1.644533724792865E1    -9.333193431454722      -4.158572870754243E1    -1.297181396444904E1    -6.166742204658534      -1.713228261366673E2
 2.643000000000000E9    -5.633376954789483      -1.616422309813914E1     1.647082070604025E1    -1.052979862381190E1    -4.124231350049882E1    -1.529443442904014E1    -6.186878342111646      -1.729845574948156E2
 2.644000000000000E9    -5.655576782837207      -1.643102003571344E1     1.648881451330684E1    -1.174157947507741E1    -4.150193144285833E1    -1.526497144121984E1    -6.200638110622712      -1.745581844370793E2
 2.645000000000000E9    -5.669184282679357      -1.661267943864105E1     1.651551020825402E1    -1.298004818942179E1    -4.175556384571654E1    -1.652915120061689E1    -6.223845796325850      -1.762581642574444E2
 2.646000000000000E9    -5.685463862323397      -1.683539367722326E1     1.654026773280133E1    -1.420249199707031E1    -4.157254718531247E1    -1.705390242287725E1    -6.244109604380302      -1.779000773571384E2
 2.647000000000000E9    -5.720879278090134      -1.705201018449918E1     1.656491001458315E1    -1.539697040684029E1    -4.148550175795594E1    -1.881884648830439E1    -6.265107558675224      -1.795137811350254E2
 2.648000000000000E9    -5.729872222434031      -1.729979085427826E1     1.658730450893224E1    -1.662555698788267E1    -4.149464256748970E1    -2.051849789464167E1    -6.280891415087857       1.788248066472376E2
 2.649000000000000E9    -5.752918250859757      -1.753407911799280E1     1.661363084602336E1    -1.783440226163864E1    -4.117575399093523E1    -2.092726321165195E1    -6.306621724162969       1.772253686771581E2
 2.650000000000000E9    -5.768885189856888      -1.775452000692534E1     1.663976586667039E1    -1.906301949656722E1    -4.116977713435034E1    -2.262695868238763E1    -6.326129291667710       1.755582721746041E2
 2.651000000000000E9    -5.794054079298496      -1.796025449798789E1     1.666618695829445E1    -2.028539969159666E1    -4.136207106626227E1    -2.391959364539496E1    -6.350874763244574       1.739621432503882E2
 2.652000000000000E9    -5.820842706715414      -1.823181050727316E1     1.669096463110255E1    -2.150455641193041E1    -4.124941800702825E1    -2.425778239348461E1    -6.384966664819726       1.723477466508991E2
 2.653000000000000E9    -5.839149475032218      -1.847590929463065E1     1.671970142874101E1    -2.274306884666666E1    -4.117092846081430E1    -2.668358737316819E1    -6.393671604940988       1.707341789818298E2
 2.654000000000000E9    -5.867224690128014      -1.867377599750574E1     1.674281193914041E1    -2.398478888625496E1    -4.122821100916602E1    -2.727954042462377E1    -6.428270327104215       1.691233564862073E2
 2.655000000000000E9    -5.889851819686363      -1.891588198083103E1     1.677321909101430E1    -2.518829684335971E1    -4.135022667180853E1    -2.852274866379700E1    -6.462280298018729       1.674892586495535E2
 2.656000000000000E9    -5.911174167203547      -1.911992466844778E1     1.680006893766292E1    -2.645177276554689E1    -4.109664027672606E1    -2.919500933575966E1    -6.491763449491764       1.659190527053303E2
 2.657000000000000E9    -5.937849994879928      -1.935639177855951E1     1.682782369501618E1    -2.766843418757539E1    -4.114894278499577E1    -3.018437893780514E1    -6.527763261646990       1.642815588268696E2
 2.658000000000000E9    -5.963474639595220      -1.956462855906757E1     1.685791436504263E1    -2.889991918644726E1    -4.100733938801764E1    -3.020597961879147E1    -6.564678880447987       1.626894898412823E2
 2.659000000000000E9    -5.984839003372225      -1.976069477896265E1     1.688545789422757E1    -3.013712580036342E1    -4.123316861045825E1    -3.294711474825586E1    -6.599241612282080       1.610375695747558E2
 2.660000000000000E9    -6.017699512182650      -2.003311915736962E1     1.691348579645101E1    -3.136943823529366E1    -4.100218892680359E1    -3.472861674144980E1    -6.634651254947242       1.594608894990211E2
 2.661000000000000E9    -6.039313854322708      -2.025931219083744E1     1.693876046294189E1    -3.262173862977110E1    -4.100308144324064E1    -3.555884513924021E1    -6.674544862517147       1.579101691356911E2
 2.662000000000000E9    -6.059072605634731      -2.042345828362566E1     1.696721171211513E1    -3.385935390835861E1    -4.098827692178940E1    -3.607421654082248E1    -6.710433487394648       1.562206415905980E2
 2.663000000000000E9    -6.090194676499178      -2.065927262847438E1     1.699725822487175E1    -3.510031690571130E1    -4.100138638335216E1    -3.888529001024727E1    -6.752556739431456       1.546354599415427E2
 2.664000000000000E9    -6.112882155715827      -2.087508635278698E1     1.702763696447910E1    -3.635327683681186E1    -4.065914989429874E1    -3.984703196562043E1    -6.791091551798435       1.530858806190161E2
 2.665000000000000E9    -6.140772785622984      -2.103704401054346E1     1.705719911733216E1    -3.761293041292116E1    -4.065070700910772E1    -4.100405339498940E1    -6.835430153501126       1.514868547838870E2
 2.666000000000000E9    -6.175983383115011      -2.134110533357205E1     1.708662407981616E1    -3.886084629341032E1    -4.060183146424410E1    -4.153724071755564E1    -6.886802117745628       1.499430052827258E2
 2.667000000000000E9    -6.194649950517825      -2.150585480986369E1     1.711882074256673E1    -4.010570579583169E1    -4.072182896509180E1    -4.298222123489935E1    -6.932233801007269       1.482972247614013E2
 2.668000000000000E9    -6.227702446653016      -2.170485944105961E1     1.714649366221980E1    -4.136645258361860E1    -4.076331135767030E1    -4.471451651563660E1    -6.977996068903525       1.467019460257320E2
 2.669000000000000E9    -6.251703396340523      -2.192660355189207E1     1.717565589567200E1    -4.261584959383003E1    -4.059048006010548E1    -4.532238665351762E1    -7.027861394924672       1.451043380967016E2
 2.670000000000000E9    -6.283476615390291      -2.213817619351650E1     1.720993401945431E1    -4.388069874631993E1    -4.067584213618248E1    -4.682540411128470E1    -7.077043467948264       1.435050838908344E2
 2.671000000000000E9    -6.312595306313340      -2.233203778412618E1     1.723737991905925E1    -4.513308557644474E1    -4.060799696533530E1    -4.889428113428919E1    -7.132447442806559       1.419365627010234E2
 2.672000000000000E9    -6.335601108772405      -2.254685945427921E1     1.726870847000926E1    -4.642067037879474E1    -4.037536043041543E1    -5.065941147500104E1    -7.197554811728763       1.403589960874217E2
 2.673000000000000E9    -6.366540615934523      -2.273916799253994E1     1.730144031189772E1    -4.765971516517775E1    -4.072572125927297E1    -5.162788708086828E1    -7.249170482243260       1.387554864406420E2
 2.674000000000000E9    -6.401346041513233      -2.293001759795967E1     1.733426419920063E1    -4.894392802695710E1    -4.050286041889255E1    -5.262081975777819E1    -7.315938240049373       1.372138809447676E2
 2.675000000000000E9    -6.425317503602722      -2.318842731567543E1     1.735902079370068E1    -5.019233007893571E1    -4.052902157873275E1    -5.425942105177766E1    -7.371848258823038       1.356300505621014E2
 2.676000000000000E9    -6.464352470061633      -2.336597842686299E1     1.739491917618617E1    -5.145816211045636E1    -4.033654379626245E1    -5.416427952139258E1    -7.437363276557898       1.339949954143785E2
 2.677000000000000E9    -6.496462450766877      -2.356468712039528E1     1.742268058194031E1    -5.275305079178319E1    -4.043810131015093E1    -5.549712293833895E1    -7.502216256964140       1.324216706054488E2
 2.678000000000000E9    -6.523725404244319      -2.379041370538768E1     1.745366741186002E1    -5.404474406237114E1    -4.052958970228574E1    -5.635573930376850E1    -7.567668687334519       1.308002713049003E2
 2.679000000000000E9    -6.559597071673775      -2.393393852989705E1     1.748811969552514E1    -5.533361848533686E1    -4.038885009508705E1    -6.016760365622180E1    -7.631393259472969       1.292604308855373E2
 2.680000000000000E9    -6.594714817852440      -2.418544878595723E1     1.751728601800578E1    -5.657431250695004E1    -4.012228052622437E1    -6.000281579525005E1    -7.701681796880756       1.276239933714196E2
 2.681000000000000E9    -6.622053102432091      -2.435551764576682E1     1.754856232410267E1    -5.790180657890578E1    -4.049746921463021E1    -6.101369773500023E1    -7.784242831419950       1.260170577471236E2
 2.682000000000000E9    -6.655019198306716      -2.448835233152964E1     1.758174154736024E1    -5.919376288452147E1    -4.036986743869811E1    -6.301454557872917E1    -7.844134092409131       1.244499942241824E2
 2.683000000000000E9    -6.691754147837815      -2.470027314924176E1     1.761178959900281E1    -6.049795335677710E1    -4.002744156041091E1    -6.332723298901471E1    -7.929096549108844       1.228656044664870E2
 2.684000000000000E9    -6.732567091427003      -2.487583003119734E1     1.764203321684732E1    -6.178157268949631E1    -4.012360703312752E1    -6.522886767257312E1    -8.003904106419686       1.213288935880988E2
 2.685000000000000E9    -6.757559502222948      -2.506788563476677E1     1.767727595328872E1    -6.310884182844086E1    -4.000755161827548E1    -6.639267751355483E1    -8.086610316454125       1.197163921462861E2
 2.686000000000000E9    -6.799348950914049      -2.522412424249317E1     1.771405103396869E1    -6.439729345965233E1    -4.013825711225752E1    -6.758895284083872E1    -8.175863134702661       1.181117196840945E2
 2.687000000000000E9    -6.832495486350232      -2.537964028059398E1     1.774390763738387E1    -6.572007290808338E1    -4.007318009019029E1    -6.968207040557212E1    -8.252485566549947       1.164665696245777E2
 2.688000000000000E9    -6.874755492670682      -2.554062112596238E1     1.777321269830321E1    -6.704472809728281E1    -3.997928366983910E1    -7.132264637573101E1    -8.341706978898085       1.149121659120532E2
 2.689000000000000E9    -6.907717402888132      -2.572979443229303E1     1.780550403373676E1    -6.835531309331678E1    -3.996130886174669E1    -7.201106599582837E1    -8.427191179349146       1.133422861294137E2
 2.690000000000000E9    -6.940992338648709      -2.587760671807156E1     1.783570477006793E1    -6.970167959473872E1    -3.987406229040532E1    -7.186862574867143E1    -8.516683662219018       1.117208851849549E2
 2.691000000000000E9    -6.981916393533012      -2.599877737765803E1     1.786332310315185E1    -7.101714556177052E1    -3.975123336907878E1    -7.415514289329808E1    -8.612007654540811       1.101373802564964E2
