# Version 1.00
#
freq[Hz];db:Trc1_S11;ang:Trc1_S11;db:Trc2_S21;ang:Trc2_S21;db:Trc3_S21;ang:Trc3_S21;db:Trc4_S22;ang:Trc4_S22;db:Mem5[Trc2]_S21;ang:Mem5[Trc2]_S21;db:Mem6[Trc3]_S21;ang:Mem6[Trc3]_S21;
2.600000000000000E+09;-4.719056484314469E+00;-1.307620264535125E+01;1.569144317658611E+01;3.425143507861175E+01;1.569144317658611E+01;3.425143507861175E+01;-6.027734629356420E+00;-1.054389715436980E+02;5.875381254601205E+01;5.590136416300765E+00;1.630972997441244E+01;3.698412054013914E+01;
2.601000000000000E+09;-4.737365700115563E+00;-1.336043416122213E+01;1.571373222333158E+01;3.331133396496545E+01;1.571373222333158E+01;3.331133396496545E+01;-6.045723507880688E+00;-1.073716007930583E+02;5.829970060370935E+01;6.637685966987369E+00;1.631708243224980E+01;3.573893475432551E+01;
2.602000000000000E+09;-4.754528251571909E+00;-1.359552494650425E+01;1.573492819944332E+01;3.222319020654271E+01;1.573492819944332E+01;3.222319020654271E+01;-6.055797440032872E+00;-1.092767489365463E+02;5.834211516455704E+01;5.470699894186045E+00;1.632935901427543E+01;3.448558743069438E+01;
2.603000000000000E+09;-4.761907475505149E+00;-1.380834662728926E+01;1.574887805461778E+01;3.106169061602272E+01;1.574887805461778E+01;3.106169061602272E+01;-6.059797510769500E+00;-1.111172927894140E+02;5.843676251362464E+01;5.518854381021189E+00;1.633657330198924E+01;3.325659208953503E+01;
2.604000000000000E+09;-4.774036750191850E+00;-1.403083313531149E+01;1.577040055794605E+01;2.986089317077078E+01;1.577040055794605E+01;2.986089317077078E+01;-6.061069393316804E+00;-1.130010256355090E+02;5.828202319974036E+01;5.410608723094036E+00;1.635010593029453E+01;3.200557222194938E+01;
2.605000000000000E+09;-4.790716121480940E+00;-1.425490483424581E+01;1.578565157289282E+01;2.864311733338337E+01;1.578565157289282E+01;2.864311733338337E+01;-6.059302531097309E+00;-1.148885611705313E+02;5.852947654459741E+01;5.218525276507603E+00;1.636083326896010E+01;3.077079092548443E+01;
2.606000000000000E+09;-4.799275489526114E+00;-1.446150816525086E+01;1.579616069524581E+01;2.743589891256550E+01;1.579616069524581E+01;2.743589891256550E+01;-6.067027523642859E+00;-1.167314151137545E+02;5.864221660032482E+01;3.859098787865723E+00;1.636734943563035E+01;2.952872927473528E+01;
2.607000000000000E+09;-4.811752161915959E+00;-1.466779795472402E+01;1.581173915641175E+01;2.621355513332479E+01;1.581173915641175E+01;2.621355513332479E+01;-6.070442084599600E+00;-1.186093521631816E+02;5.856255147473292E+01;5.545083365164797E+00;1.637838845176719E+01;2.832405463445756E+01;
2.608000000000000E+09;-4.828397960321721E+00;-1.482115064438113E+01;1.582868444520305E+01;2.500276258658599E+01;1.582868444520305E+01;2.500276258658599E+01;-6.075038388043161E+00;-1.204189731435232E+02;5.811485350005339E+01;7.477154673473003E+00;1.639050996539434E+01;2.709661346849334E+01;
2.609000000000000E+09;-4.844023955066759E+00;-1.508523864796572E+01;1.584410910824918E+01;2.378184098597711E+01;1.584410910824918E+01;2.378184098597711E+01;-6.071557758880351E+00;-1.222210404036747E+02;5.828841201875689E+01;6.426206352270406E+00;1.640240020665938E+01;2.586286382342897E+01;
2.610000000000000E+09;-4.850083814481546E+00;-1.529951565060386E+01;1.586135767007949E+01;2.253444909191036E+01;1.586135767007949E+01;2.253444909191036E+01;-6.079681451791995E+00;-1.241533886699888E+02;5.837983676716844E+01;5.868037459868741E+00;1.641545044168245E+01;2.460148913144127E+01;
2.611000000000000E+09;-4.864821552728858E+00;-1.548977265472272E+01;1.588040819547620E+01;2.130319677772157E+01;1.588040819547620E+01;2.130319677772157E+01;-6.075777356267459E+00;-1.259286782724613E+02;5.848689833231489E+01;6.189184458622894E+00;1.643023631725844E+01;2.338266068879198E+01;
2.612000000000000E+09;-4.883905458320484E+00;-1.572778467284303E+01;1.589686864830186E+01;2.008938725012576E+01;1.589686864830186E+01;2.008938725012576E+01;-6.084280889371685E+00;-1.277992184720741E+02;5.843657709825393E+01;4.564119327738045E+00;1.644344084280316E+01;2.215871290465423E+01;
2.613000000000000E+09;-4.888764461858996E+00;-1.592299448747048E+01;1.591633455534034E+01;1.887365943684483E+01;1.591633455534034E+01;1.887365943684483E+01;-6.088932855280973E+00;-1.295717822253816E+02;5.838824330582237E+01;6.738445105628023E+00;1.645470388480835E+01;2.093284951122475E+01;
2.614000000000000E+09;-4.906853579657709E+00;-1.610230261726515E+01;1.593146493360097E+01;1.767166630179113E+01;1.593146493360097E+01;1.767166630179113E+01;-6.095971000336863E+00;-1.313912166801302E+02;5.836791293616612E+01;4.885590321322804E+00;1.646923180956782E+01;1.972143673650114E+01;
2.615000000000000E+09;-4.912678173538670E+00;-1.637498461520066E+01;1.594805992032692E+01;1.643695724943592E+01;1.594805992032692E+01;1.643695724943592E+01;-6.099250777244754E+00;-1.331982214014599E+02;5.838207792703359E+01;5.528019980045624E+00;1.648006351253787E+01;1.849155473808382E+01;
2.616000000000000E+09;-4.927582563568100E+00;-1.656496571470738E+01;1.596843607899113E+01;1.518189736032021E+01;1.596843607899113E+01;1.518189736032021E+01;-6.106011410354134E+00;-1.350513036947095E+02;5.827808285296265E+01;4.973157133237661E+00;1.649598216532796E+01;1.724118365761226E+01;
2.617000000000000E+09;-4.951074493176228E+00;-1.676570118184101E+01;1.598641102894297E+01;1.398347984687096E+01;1.598641102894297E+01;1.398347984687096E+01;-6.106009380307301E+00;-1.368076023306591E+02;5.822395584610802E+01;6.194416941639433E+00;1.651121472738072E+01;1.602493426685903E+01;
2.618000000000000E+09;-4.966139043171761E+00;-1.700856985395573E+01;1.600083082239671E+01;1.276335415315984E+01;1.600083082239671E+01;1.276335415315984E+01;-6.113446987306935E+00;-1.386302626203938E+02;5.853409808743628E+01;5.972478458539980E+00;1.652208397791270E+01;1.480165704052573E+01;
2.619000000000000E+09;-4.974809812548560E+00;-1.719110686947432E+01;1.602455969844719E+01;1.154911707525986E+01;1.602455969844719E+01;1.154911707525986E+01;-6.123391047037975E+00;-1.404065659743773E+02;5.813362330632052E+01;6.746862766682487E+00;1.654216730303868E+01;1.356762777357427E+01;
2.620000000000000E+09;-4.992925151314440E+00;-1.741005325239289E+01;1.604069141588734E+01;1.031797745048267E+01;1.604069141588734E+01;1.031797745048267E+01;-6.133956754508475E+00;-1.421589230419391E+02;5.837168018343047E+01;5.373445545691092E+00;1.655188428176442E+01;1.234772116336842E+01;
2.621000000000000E+09;-5.001682434002727E+00;-1.760807219483806E+01;1.606264916741720E+01;9.089487391124946E+00;1.606264916741720E+01;9.089487391124946E+00;-6.129779773077119E+00;-1.439698253164637E+02;5.859201931001635E+01;5.499849942377249E+00;1.656915240065204E+01;1.111254307854014E+01;
2.622000000000000E+09;-5.018601122789392E+00;-1.785041784233843E+01;1.608435865758247E+01;7.890237805332192E+00;1.608435865758247E+01;7.890237805332192E+00;-6.148717660682234E+00;-1.457151132173768E+02;5.834685335759836E+01;5.718174643061732E+00;1.658821397243835E+01;9.906768564702729E+00;
2.623000000000000E+09;-5.025617252315558E+00;-1.804766247011635E+01;1.610424853430509E+01;6.647099133925111E+00;1.610424853430509E+01;6.647099133925111E+00;-6.150729464119259E+00;-1.475179275132912E+02;5.815098857216499E+01;4.663685051270913E+00;1.660312530710804E+01;8.661477040184336E+00;
2.624000000000000E+09;-5.049894112352752E+00;-1.823852895659594E+01;1.612473242891462E+01;5.430717008208367E+00;1.612473242891462E+01;5.430717008208367E+00;-6.163369097088710E+00;-1.492296473334623E+02;5.799836619276549E+01;6.304058770851965E+00;1.662282333872051E+01;7.439235996212944E+00;
2.625000000000000E+09;-5.066872175241127E+00;-1.849385639902916E+01;1.614071097692961E+01;4.228694381342773E+00;1.614071097692961E+01;4.228694381342773E+00;-6.171444098758426E+00;-1.509907358139411E+02;5.821253308491895E+01;6.203828628975349E+00;1.663537575684013E+01;6.234440487640642E+00;
2.626000000000000E+09;-5.078350284057081E+00;-1.873618101734937E+01;1.616551669889487E+01;2.994871240855085E+00;1.616551669889487E+01;2.994871240855085E+00;-6.188727617475504E+00;-1.527182594830531E+02;5.833397811482696E+01;3.890220828743641E+00;1.665523190918621E+01;5.002407203201430E+00;
2.627000000000000E+09;-5.096827887020446E+00;-1.890039558854718E+01;1.618479583394050E+01;1.789649795224208E+00;1.618479583394050E+01;1.789649795224208E+00;-6.194541048575922E+00;-1.545288207108482E+02;5.817769251202016E+01;4.709187061456058E+00;1.666972865187829E+01;3.778271972326786E+00;
2.628000000000000E+09;-5.108943025042588E+00;-1.913006145143891E+01;1.620698932591886E+01;5.469962531719049E-01;1.620698932591886E+01;5.469962531719049E-01;-6.198290535385058E+00;-1.562126426997216E+02;5.834870293980530E+01;6.054583152385815E+00;1.668855602207336E+01;2.545996061337397E+00;
2.629000000000000E+09;-5.124835315235656E+00;-1.938992889833267E+01;1.622993739684011E+01;-6.821163760244342E-01;1.622993739684011E+01;-6.821163760244342E-01;-6.211911343170028E+00;-1.579348230801019E+02;5.802162729372444E+01;6.124589800584274E+00;1.670846090040752E+01;1.324906787762233E+00;
2.630000000000000E+09;-5.146739160309788E+00;-1.956636782848370E+01;1.624912402475040E+01;-1.881669288738544E+00;1.624912402475040E+01;-1.881669288738544E+00;-6.227758758003548E+00;-1.596793932496222E+02;5.818550102540765E+01;4.350968177921003E+00;1.672420858016504E+01;1.261087427301517E-01;
2.631000000000000E+09;-5.161299844402584E+00;-1.980428861441910E+01;1.627087594431828E+01;-3.065873819992909E+00;1.627087594431828E+01;-3.065873819992909E+00;-6.235662990465083E+00;-1.614147617599541E+02;5.816837521346063E+01;2.954135612153237E+00;1.674439243661728E+01;-1.080707497925522E+00;
2.632000000000000E+09;-5.170551388793388E+00;-2.006150789525716E+01;1.629448429736621E+01;-4.325204718732222E+00;1.629448429736621E+01;-4.325204718732222E+00;-6.250041548441131E+00;-1.630998799322573E+02;5.825543837061537E+01;5.825591583111152E+00;1.676172580197984E+01;-2.333828087277763E+00;
2.633000000000000E+09;-5.188070357350113E+00;-2.029015032303351E+01;1.631935867017150E+01;-5.514748784529459E+00;1.631935867017150E+01;-5.514748784529459E+00;-6.265629434531382E+00;-1.647900217532406E+02;5.810208205655582E+01;5.128604592214627E+00;1.678430965946146E+01;-3.525722151089979E+00;
2.634000000000000E+09;-5.206758985064177E+00;-2.048731528647571E+01;1.634196736548036E+01;-6.762492910898947E+00;1.634196736548036E+01;-6.762492910898947E+00;-6.278983408906404E+00;-1.665394509842815E+02;5.816707659862345E+01;6.207722181347044E+00;1.680170363286601E+01;-4.780966331253493E+00;
2.635000000000000E+09;-5.230106657156882E+00;-2.074117749521684E+01;1.636146522413854E+01;-7.958336812120643E+00;1.636146522413854E+01;-7.958336812120643E+00;-6.304901940061086E+00;-1.682296507768311E+02;5.802783036529759E+01;4.244358740425614E+00;1.681996811677216E+01;-5.990707202442992E+00;
2.636000000000000E+09;-5.244207411477552E+00;-2.090767137130303E+01;1.638299341805530E+01;-9.213137697737951E+00;1.638299341805530E+01;-9.213137697737951E+00;-6.316587423247566E+00;-1.699102686035885E+02;5.807564500819788E+01;3.639531825961280E+00;1.683896243108726E+01;-7.235338580404309E+00;
2.637000000000000E+09;-5.264752286722919E+00;-2.115084508650481E+01;1.640518337865943E+01;-1.040091107727757E+01;1.640518337865943E+01;-1.040091107727757E+01;-6.332365548248355E+00;-1.716279342892211E+02;5.832557671986812E+01;4.778951078158771E+00;1.685924190951524E+01;-8.431301804146406E+00;
2.638000000000000E+09;-5.280531111833784E+00;-2.136071521572087E+01;1.643284905753690E+01;-1.162494732408405E+01;1.643284905753690E+01;-1.162494732408405E+01;-6.348287877161805E+00;-1.733056623073377E+02;5.809602853496310E+01;5.097972413201242E+00;1.687904678409814E+01;-9.654994489099492E+00;
2.639000000000000E+09;-5.294371536805028E+00;-2.159068440544313E+01;1.645755521798627E+01;-1.287227828685851E+01;1.645755521798627E+01;-1.287227828685851E+01;-6.377663518653098E+00;-1.749806498652764E+02;5.807624011871382E+01;4.581380359371066E+00;1.690288058258604E+01;-1.089472617996384E+01;
2.640000000000000E+09;-5.315496440117049E+00;-2.181506431671554E+01;1.648285690392415E+01;-1.406982901110462E+01;1.648285690392415E+01;-1.406982901110462E+01;-6.391481801947645E+00;-1.767354973438640E+02;5.795713534017342E+01;5.363647116461128E+00;1.692563162971187E+01;-1.210412226582270E+01;
2.641000000000000E+09;-5.335474300605043E+00;-2.206260403446584E+01;1.650863658566252E+01;-1.529739736336960E+01;1.650863658566252E+01;-1.529739736336960E+01;-6.415337736296232E+00;-1.783294290024953E+02;5.820988313878594E+01;4.900690046592675E+00;1.694897905958975E+01;-1.334045546961886E+01;
2.642000000000000E+09;-5.352719990121281E+00;-2.229028243363782E+01;1.653235875524455E+01;-1.653676661490462E+01;1.653235875524455E+01;-1.653676661490462E+01;-6.434636981882532E+00;1.799554172004927E+02;5.811632636302949E+01;4.157474013888922E+00;1.697050140961021E+01;-1.456542619071724E+01;
2.643000000000000E+09;-5.371476064971342E+00;-2.249203916425797E+01;1.656315987592044E+01;-1.775588543839351E+01;1.656315987592044E+01;-1.775588543839351E+01;-6.459715119233883E+00;1.783257223412877E+02;5.800132605419322E+01;5.868437964548645E+00;1.699696701445244E+01;-1.579696208440204E+01;
2.644000000000000E+09;-5.397334288419283E+00;-2.271991018024747E+01;1.658230200464675E+01;-1.896690950776329E+01;1.658230200464675E+01;-1.896690950776329E+01;-6.479832226717017E+00;1.767331782114871E+02;5.786451036651129E+01;3.702039381056239E+00;1.701484492901044E+01;-1.701070868296607E+01;
2.645000000000000E+09;-5.405833091801937E+00;-2.293025134094258E+01;1.661288737076244E+01;-2.021829664107780E+01;1.661288737076244E+01;-2.021829664107780E+01;-6.505716676014415E+00;1.750097221652424E+02;5.813748460399562E+01;7.036656875161757E+00;1.703983598604921E+01;-1.827506348734387E+01;
2.646000000000000E+09;-5.428585660146032E+00;-2.317421514450617E+01;1.663893006737946E+01;-2.146755822973250E+01;1.663893006737946E+01;-2.146755822973250E+01;-6.545675934806141E+00;1.733466208024895E+02;5.826787796125744E+01;4.902044261216175E+00;1.706376461085052E+01;-1.952238875286827E+01;
2.647000000000000E+09;-5.451862722266977E+00;-2.338579756951315E+01;1.666493642108667E+01;-2.266899111480358E+01;1.666493642108667E+01;-2.266899111480358E+01;-6.572713091535802E+00;1.717021889621431E+02;5.800014074236816E+01;6.285368804233583E+00;1.708797452555367E+01;-2.073006091823101E+01;
2.648000000000000E+09;-5.474974609220194E+00;-2.366103581622700E+01;1.668990848728195E+01;-2.390280472083336E+01;1.668990848728195E+01;-2.390280472083336E+01;-6.595521384550968E+00;1.700784585199498E+02;5.834532768376513E+01;5.296140643415120E+00;1.711076292802139E+01;-2.194975199190512E+01;
2.649000000000000E+09;-5.490023048216379E+00;-2.386854457984984E+01;1.671733952535529E+01;-2.513422108563140E+01;1.671733952535529E+01;-2.513422108563140E+01;-6.633911198930774E+00;1.684793273150952E+02;5.805062934221652E+01;3.818182847216256E+00;1.713577537751777E+01;-2.319911847942472E+01;
2.650000000000000E+09;-5.512578817450883E+00;-2.406783974819058E+01;1.674552406548296E+01;-2.637940918734711E+01;1.674552406548296E+01;-2.637940918734711E+01;-6.660238247021684E+00;1.667962889652578E+02;5.795530175084826E+01;4.536347147416815E+00;1.715794853782629E+01;-2.444820130487432E+01;
2.651000000000000E+09;-5.537134127469358E+00;-2.431539404662078E+01;1.677249803578309E+01;-2.762394707415822E+01;1.677249803578309E+01;-2.762394707415822E+01;-6.701579144855029E+00;1.651310528020384E+02;5.816968140722526E+01;6.457315665289344E+00;1.718485920050436E+01;-2.569028275847056E+01;
2.652000000000000E+09;-5.565364359603851E+00;-2.455634783510961E+01;1.679987705824968E+01;-2.884276169237245E+01;1.679987705824968E+01;-2.884276169237245E+01;-6.741037779953398E+00;1.635292492588690E+02;5.796677574541118E+01;4.900993875664439E+00;1.720955615663713E+01;-2.691554179744575E+01;
2.653000000000000E+09;-5.583114293017157E+00;-2.477138566829393E+01;1.682958272384801E+01;-3.011066607170112E+01;1.682958272384801E+01;-3.011066607170112E+01;-6.764208740041738E+00;1.619484346535885E+02;5.801004406961546E+01;5.448408850315023E+00;1.723732274956904E+01;-2.818052954190620E+01;
2.654000000000000E+09;-5.604152685284221E+00;-2.498498938013021E+01;1.685510014439752E+01;-3.136181945084747E+01;1.685510014439752E+01;-3.136181945084747E+01;-6.811175073999256E+00;1.602945110011825E+02;5.788779320853187E+01;4.081854202332849E+00;1.725934776838621E+01;-2.944022045576234E+01;
2.655000000000000E+09;-5.630303715648179E+00;-2.525073791538884E+01;1.688706931037659E+01;-3.259275893535918E+01;1.688706931037659E+01;-3.259275893535918E+01;-6.849654531614570E+00;1.586479958760890E+02;5.823705942649006E+01;5.104994788072760E+00;1.729005934795033E+01;-3.066355810895708E+01;
2.656000000000000E+09;-5.652085877436697E+00;-2.543873187393159E+01;1.691652112444426E+01;-3.387624097924122E+01;1.691652112444426E+01;-3.387624097924122E+01;-6.888121261471802E+00;1.570512011524186E+02;5.772419144309915E+01;5.610822130322293E+00;1.731619601154143E+01;-3.194391618679932E+01;
2.657000000000000E+09;-5.677721549678010E+00;-2.568350526151044E+01;1.694490804869568E+01;-3.511604596430635E+01;1.694490804869568E+01;-3.511604596430635E+01;-6.936049049267248E+00;1.554088748872137E+02;5.795500611066817E+01;4.371936455649457E+00;1.734214896121090E+01;-3.319768213677018E+01;
2.658000000000000E+09;-5.708463816131850E+00;-2.587130117625740E+01;1.697518116557778E+01;-3.636783527304143E+01;1.697518116557778E+01;-3.636783527304143E+01;-6.981417181997492E+00;1.537572907619158E+02;5.809886598366624E+01;6.475649863175029E+00;1.737067884106630E+01;-3.444561805187285E+01;
2.659000000000000E+09;-5.729233935263769E+00;-2.612036838390518E+01;1.700486388736192E+01;-3.762906307446321E+01;1.700486388736192E+01;-3.762906307446321E+01;-7.026826887536155E+00;1.521783025422640E+02;5.808352544276286E+01;5.187042306322565E+00;1.739490644885948E+01;-3.569658966917059E+01;
2.660000000000000E+09;-5.752841403906891E+00;-2.633342072156810E+01;1.703417821093252E+01;-3.887243489980579E+01;1.703417821093252E+01;-3.887243489980579E+01;-7.076916127656196E+00;1.505563969961529E+02;5.810147715118117E+01;4.572714816425814E+00;1.742291631361620E+01;-3.695846045461580E+01;
2.661000000000000E+09;-5.777972684772453E+00;-2.661917448336704E+01;1.706121776274606E+01;-4.015355688910654E+01;1.706121776274606E+01;-4.015355688910654E+01;-7.119303605471629E+00;1.489545503182869E+02;5.791734126364932E+01;4.741355950815885E+00;1.744825767822023E+01;-3.822839960528149E+01;
2.662000000000000E+09;-5.795563334689353E+00;-2.678701346280266E+01;1.709161943681422E+01;-4.141540349761790E+01;1.709161943681422E+01;-4.141540349761790E+01;-7.177114158349030E+00;1.473532088405830E+02;5.794095549871867E+01;5.103023706999832E+00;1.747511744431304E+01;-3.950109196805586E+01;
2.663000000000000E+09;-5.822733970198827E+00;-2.693951910842525E+01;1.712244294459552E+01;-4.267388446257913E+01;1.712244294459552E+01;-4.267388446257913E+01;-7.224925399457581E+00;1.457621318433371E+02;5.795536077877777E+01;5.140262738714396E+00;1.750504316334124E+01;-4.076655181865165E+01;
2.664000000000000E+09;-5.850228587733783E+00;-2.717763215741519E+01;1.715371213565250E+01;-4.394774288261130E+01;1.715371213565250E+01;-4.394774288261130E+01;-7.274023512743852E+00;1.441307105045347E+02;5.790446257444437E+01;4.959098138525524E+00;1.753266391237793E+01;-4.204076141185867E+01;
2.665000000000000E+09;-5.879860383628296E+00;-2.735838986446570E+01;1.718344838929769E+01;-4.521068184140581E+01;1.718344838929769E+01;-4.521068184140581E+01;-7.335351997182032E+00;1.425347072327457E+02;5.794946853965718E+01;4.923435168510993E+00;1.756224302439982E+01;-4.331267631811458E+01;
2.666000000000000E+09;-5.909366066528385E+00;-2.764004461806396E+01;1.721431079560666E+01;-4.650821136964750E+01;1.721431079560666E+01;-4.650821136964750E+01;-7.385384403317047E+00;1.409097500569790E+02;5.790900988108596E+01;3.494427392867411E+00;1.759009662541582E+01;-4.459889176002748E+01;
