#  HZ   S   DB   R     50.00 
! Rohde & Schwarz Vector Network Analyzer 
! Rohde-Schwarz,ZNB8-2Port,1311601042101540,3.40
! Created: UTC 6/28/2024, 7:38:03 AM
! freq[Hz]                db:S11                  ang:S11                 db:S21                  ang:S21                 db:S12                  ang:S12                 db:S22                  ang:S22
 2.600000000000000E9    -4.725852305292553      -1.308879857485109E1     1.569410377645044E1     3.402777614700778E1    -4.235241568401597E1     3.010601248865495E1    -6.029254809509998      -1.055025258857258E2
 2.601000000000000E9    -4.741170466374811      -1.337326293786853E1     1.571800955105004E1     3.307605564219037E1    -4.247450635633857E1     2.811686786317911E1    -6.043618054910195      -1.073971601251153E2
 2.602000000000000E9    -4.757765352638067      -1.360149979065301E1     1.573780118519057E1     3.199021874185756E1    -4.199197882925239E1     2.650815670495687E1    -6.058272692725758      -1.093167751050657E2
 2.603000000000000E9    -4.761932500361544      -1.384737026127281E1     1.575537459925827E1     3.081459859845027E1    -4.223991176995398E1     2.702409874747056E1    -6.057025742059609      -1.111589268150969E2
 2.604000000000000E9    -4.780269991470082      -1.405138424351192E1     1.577432616639181E1     2.963552065979805E1    -4.210717220648078E1     2.526748925341749E1    -6.054356968020183      -1.130134281185045E2
 2.605000000000000E9    -4.791565116242625      -1.426730699475335E1     1.578818817996814E1     2.841753108565908E1    -4.221283959254239E1     2.401246121590060E1    -6.061080593770603      -1.149040008733007E2
 2.606000000000000E9    -4.807257182201038      -1.447818558646160E1     1.579989061235674E1     2.720067629039918E1    -4.197255923376814E1     2.152958609564347E1    -6.061648565203353      -1.167554062696154E2
 2.607000000000000E9    -4.820481887419727      -1.466831298151816E1     1.581527341828098E1     2.598498342909704E1    -4.190062501079642E1     2.095745799942514E1    -6.063963142832454      -1.186164394324382E2
 2.608000000000000E9    -4.835767714356907      -1.487259328911764E1     1.583279689558325E1     2.476735794818997E1    -4.230448660893990E1     2.043197181433010E1    -6.069739637256699      -1.204190514479892E2
 2.609000000000000E9    -4.851522825528678      -1.511758248709452E1     1.584773795524045E1     2.356004852473823E1    -4.201331404787459E1     1.866512593795344E1    -6.073497382926098      -1.222713296355035E2
 2.610000000000000E9    -4.856217057765718      -1.530250403391567E1     1.586524646600907E1     2.231441641369290E1    -4.211044482015851E1     1.749528772356926E1    -6.078731962998867      -1.241397852313866E2
 2.611000000000000E9    -4.868461499668691      -1.549913613088287E1     1.588494565473001E1     2.109117042183766E1    -4.208812014864297E1     1.483812076082620E1    -6.080336001854052      -1.259741030212493E2
 2.612000000000000E9    -4.888525640222458      -1.575877640068565E1     1.590183910043095E1     1.986761509003746E1    -4.205484544203466E1     1.428094522850197E1    -6.086280127596275      -1.277927759427772E2
 2.613000000000000E9    -4.902410936435594      -1.590470102638716E1     1.591865851040511E1     1.865181691428746E1    -4.196348009651916E1     1.332212957949049E1    -6.092485968972881      -1.296353009308402E2
 2.614000000000000E9    -4.912636738339814      -1.614450042457378E1     1.593678030872428E1     1.745399546703376E1    -4.181123399919306E1     1.113494275925445E1    -6.097401870047648      -1.313984153973308E2
 2.615000000000000E9    -4.921879015195435      -1.636055620757424E1     1.595062666320042E1     1.623899289902164E1    -4.187689853556947E1     1.147184957624757E1    -6.101780876201639      -1.332587328200656E2
 2.616000000000000E9    -4.939198067287881      -1.657720387803030E1     1.597143388333918E1     1.497854093782886E1    -4.201797293623621E1     1.126043352009450E1    -6.107337072825247      -1.350539415318871E2
 2.617000000000000E9    -4.956081688905794      -1.678249987777799E1     1.599138345149338E1     1.377635543301930E1    -4.174584279497730E1     8.158120419259170      -6.111567030848448      -1.368398691147684E2
 2.618000000000000E9    -4.969235191500942      -1.702185968548870E1     1.600657657185751E1     1.255053741492928E1    -4.171827937874045E1     9.500601436865093      -6.116463364421989      -1.386656951983565E2
 2.619000000000000E9    -4.977201715150975      -1.724829671613771E1     1.602924179791298E1     1.133211578976213E1    -4.187944426291707E1     7.555267834960754      -6.125607614089999      -1.404489210936595E2
 2.620000000000000E9    -4.994843164470566      -1.742783751941523E1     1.604580560108715E1     1.011219288568983E1    -4.170496199390490E1     6.068707334935663      -6.136183439645845      -1.422071494642048E2
 2.621000000000000E9    -5.008958461152813      -1.763763508196765E1     1.606430193614349E1     8.877375562316736      -4.184376872998555E1     3.573070047762488      -6.136462202552125      -1.440101966011020E2
 2.622000000000000E9    -5.023140321377864      -1.784154749712561E1     1.608791874107371E1     7.692425305202859      -4.166197520348300E1     2.719677194769885      -6.143170443463256      -1.457821498972143E2
 2.623000000000000E9    -5.035408595328308      -1.806443570088803E1     1.610639924427819E1     6.447117953523435      -4.148237304412027E1     3.026580705974948E-1   -6.162583162959105      -1.475229280417770E2
 2.624000000000000E9    -5.054035077254888      -1.830786995583093E1     1.612942766862460E1     5.215973344807658      -4.160382604561853E1     1.819448543038902      -6.161853521855837      -1.492797657751479E2
 2.625000000000000E9    -5.070645813456270      -1.852278579123982E1     1.614679060046351E1     4.035081746386299      -4.164628105026669E1    -1.442607910642646E-1   -6.173260389824202      -1.509803917240909E2
 2.626000000000000E9    -5.085964456950391      -1.875347198571955E1     1.616885299402486E1     2.788267777106593      -4.159716862815466E1    -1.464826168351127      -6.183893363819971      -1.527676247563976E2
 2.627000000000000E9    -5.102917723935738      -1.896108790551712E1     1.618749891326127E1     1.583623294364785      -4.162536531369282E1    -3.113114281767911      -6.193099692191574      -1.545623846170986E2
 2.628000000000000E9    -5.112015494301834      -1.916068978351772E1     1.621167218695210E1     3.341813953795671E-1   -4.152931876001057E1    -6.106946796195483      -6.198135152665922      -1.562108498913803E2
 2.629000000000000E9    -5.130074309598508      -1.943784524612024E1     1.623325750349871E1    -8.760746486242218E-1   -4.136767709864543E1    -5.376378206350893      -6.215140130578217      -1.579920997193595E2
 2.630000000000000E9    -5.150740904581573      -1.957515385523723E1     1.625210488208588E1    -2.087429670207410      -4.144217569011110E1    -6.597705006351671      -6.232935812870712      -1.596842208480765E2
 2.631000000000000E9    -5.165430913580101      -1.985146146648460E1     1.627578114995408E1    -3.287757091205521      -4.149415921275170E1    -7.137644667864736      -6.240109303693831      -1.614570533956094E2
 2.632000000000000E9    -5.180283114897425      -2.005533948155310E1     1.629571580206709E1    -4.519294456997087      -4.158733373982231E1    -7.659852644609425      -6.250574589398678      -1.631316458630026E2
 2.633000000000000E9    -5.199471561908780      -2.029552481720359E1     1.632103640308063E1    -5.711376138382553      -4.123084349296005E1    -1.075112402788270E1    -6.272673185226431      -1.648768071748709E2
 2.634000000000000E9    -5.214352666416752      -2.051627135650342E1     1.634400617071735E1    -6.959173034881318      -4.152841505607903E1    -1.139749928470258E1    -6.279675989932293      -1.665439652578152E2
 2.635000000000000E9    -5.234971113013928      -2.078516511746394E1     1.636298337843600E1    -8.173521427468883      -4.120425121300450E1    -1.401480543893632E1    -6.301218301761981      -1.682480051416010E2
 2.636000000000000E9    -5.247525316876247      -2.093011113032986E1     1.638820650596062E1    -9.413119999347039      -4.120747569465053E1    -1.364421662852680E1    -6.317662840674670      -1.699585754906051E2
 2.637000000000000E9    -5.264197298519651      -2.117088092571579E1     1.641164362701787E1    -1.060154762110734E1    -4.112383531122659E1    -1.514956862685911E1    -6.336275600240696      -1.716635586372356E2
 2.638000000000000E9    -5.286594583472476      -2.138976962136082E1     1.643761544086281E1    -1.183263351523107E1    -4.126589943192423E1    -1.587869602325240E1    -6.347821644728329      -1.733298503345154E2
 2.639000000000000E9    -5.305546824283972      -2.160305750744417E1     1.646053909387788E1    -1.306866956475373E1    -4.121209639160683E1    -1.830467540520859E1    -6.380683610095556      -1.749945107731405E2
 2.640000000000000E9    -5.323514287113907      -2.185097813216589E1     1.648609150407026E1    -1.426586470110999E1    -4.115355789130955E1    -1.876028439279130E1    -6.392563016629353      -1.767764187131028E2
 2.641000000000000E9    -5.334376370742304      -2.208729801633884E1     1.651179296235754E1    -1.549691440871584E1    -4.101231286023919E1    -2.097547274756663E1    -6.412903550102659      -1.783960494578244E2
 2.642000000000000E9    -5.358255342754675      -2.231577386268841E1     1.653532712977238E1    -1.672911915779264E1    -4.096240647840082E1    -2.239866375188213E1    -6.434003176671744       1.799214542434873E2
 2.643000000000000E9    -5.380223819928592      -2.250613146018709E1     1.656509216259230E1    -1.794602999315611E1    -4.102524079216228E1    -2.306445655000108E1    -6.458245512706950       1.782870100402990E2
 2.644000000000000E9    -5.396975004294434      -2.275742495622186E1     1.658718930377822E1    -1.915249870922148E1    -4.097811247303655E1    -2.436846389863087E1    -6.484618843088718       1.766850097230235E2
 2.645000000000000E9    -5.414026631272905      -2.296309145780877E1     1.661441547347018E1    -2.040328184247768E1    -4.090016340948419E1    -2.542359763748225E1    -6.510609858635088       1.749618596039047E2
 2.646000000000000E9    -5.432140708300677      -2.321701928902439E1     1.664092689176029E1    -2.165840929724674E1    -4.081148635922456E1    -2.534681741299286E1    -6.548336820682330       1.733035765053363E2
 2.647000000000000E9    -5.463328177504813      -2.342895652013447E1     1.666724176915706E1    -2.285629869454524E1    -4.094647183022584E1    -2.636685870992472E1    -6.573576593810309       1.716440087489674E2
 2.648000000000000E9    -5.472309012031818      -2.368630220694709E1     1.669330937126930E1    -2.410225496770722E1    -4.078080849289301E1    -2.887896797821575E1    -6.603929169113888       1.700438805374733E2
 2.649000000000000E9    -5.498850404438816      -2.388690160781852E1     1.672173446841077E1    -2.532517908878501E1    -4.072467102983963E1    -2.819305071584300E1    -6.634052530126782       1.684268853861490E2
 2.650000000000000E9    -5.523746937798596      -2.411976732193614E1     1.674483920566652E1    -2.656474141113058E1    -4.091267935550520E1    -3.223832727161871E1    -6.661261755477622       1.667346707870090E2
 2.651000000000000E9    -5.541493277117144      -2.436103770470701E1     1.677542051998363E1    -2.780416076959905E1    -4.056307298574151E1    -3.299891466215417E1    -6.702347881129539       1.650954683406089E2
 2.652000000000000E9    -5.566712387573530      -2.460764020141069E1     1.680362014622986E1    -2.903023592872994E1    -4.063663718729838E1    -3.382627707941379E1    -6.746008232355094       1.635120957067707E2
 2.653000000000000E9    -5.583961997187975      -2.483266915521123E1     1.683258915328775E1    -3.030434319033970E1    -4.074480660773070E1    -3.269548034677212E1    -6.764292889071704       1.618738614345895E2
 2.654000000000000E9    -5.611899379349675      -2.504702105897115E1     1.685814662732912E1    -3.155233095424224E1    -4.077014449105406E1    -3.600547691349350E1    -6.809172645563732       1.602745341588912E2
 2.655000000000000E9    -5.636496809069577      -2.524021515634895E1     1.689087355840677E1    -3.276261189421090E1    -4.083741717633443E1    -3.684214588242371E1    -6.848827409034966       1.586472036754213E2
 2.656000000000000E9    -5.653737489826606      -2.545764950711679E1     1.691844789733980E1    -3.403542556453415E1    -4.044181176870034E1    -3.814222143742151E1    -6.893415254619465       1.570275909644369E2
 2.657000000000000E9    -5.687189137232123      -2.572701782602951E1     1.694594437842971E1    -3.527849148661755E1    -4.065575515405151E1    -4.007151566611869E1    -6.942480192652719       1.553442659572819E2
 2.658000000000000E9    -5.713281600517480      -2.590474567751408E1     1.697669971334649E1    -3.653576249951013E1    -4.064292460995951E1    -4.097239563762427E1    -6.976009856870444       1.537975825198957E2
 2.659000000000000E9    -5.729312869883312      -2.614096991328958E1     1.700865635971925E1    -3.778229606263685E1    -4.070968338117702E1    -4.273778555891121E1    -7.033345880341850       1.521755821441656E2
 2.660000000000000E9    -5.758883129396225      -2.637438921782627E1     1.703668579831112E1    -3.903703758434209E1    -4.017942079142430E1    -4.295514791387654E1    -7.082470133532342       1.505133595042073E2
 2.661000000000000E9    -5.778261925747550      -2.661243201764093E1     1.706427566175349E1    -4.030471048991951E1    -4.020704921528576E1    -4.479339638664391E1    -7.129243761398588       1.489381434333887E2
 2.662000000000000E9    -5.807777797176135      -2.678546268665422E1     1.709269334685221E1    -4.156897898272354E1    -4.043804636285026E1    -4.695823461742265E1    -7.175884063746412       1.472591095989902E2
 2.663000000000000E9    -5.835793518009373      -2.697328522254861E1     1.712247315838954E1    -4.283273848323665E1    -4.042316488520574E1    -4.786750405202793E1    -7.232687814199064       1.456742674303462E2
 2.664000000000000E9    -5.856646515148901      -2.722905938245467E1     1.715461974627404E1    -4.410463224269957E1    -4.024306557131653E1    -4.931589248742820E1    -7.281120820606612       1.440636305436691E2
 2.665000000000000E9    -5.885735761221154      -2.738995894920285E1     1.718511694367805E1    -4.536356309907828E1    -4.034498997957078E1    -4.992437482906369E1    -7.334814018883877       1.424331984217178E2
 2.666000000000000E9    -5.916449662092631      -2.765237955029516E1     1.721689883618274E1    -4.664659195644057E1    -4.017805245316777E1    -5.078346037927852E1    -7.396386040651973       1.408872819576934E2
 2.667000000000000E9    -5.944569512573824      -2.782795358158134E1     1.724627103298055E1    -4.790511840203541E1    -4.000104392940258E1    -5.214338701150156E1    -7.454833224102872       1.392809228738004E2
 2.668000000000000E9    -5.974871931772289      -2.802498861693456E1     1.727535354872355E1    -4.919769286542471E1    -4.011065020854347E1    -5.368052005934599E1    -7.519141151861159       1.375950335077433E2
 2.669000000000000E9    -5.994672480356897      -2.818623766419379E1     1.730664967796884E1    -5.045873744582915E1    -4.004856184512068E1    -5.372411520283156E1    -7.575265178071509       1.360854812579703E2
 2.670000000000000E9    -6.026490577907641      -2.841113643710084E1     1.734035609771119E1    -5.174632135848590E1    -4.030086056462465E1    -5.838542649132788E1    -7.639075934694687       1.344419713010241E2
 2.671000000000000E9    -6.058577633233790      -2.864096866835482E1     1.736801864737239E1    -5.302741793171688E1    -4.006625304587903E1    -5.828127174207304E1    -7.714441651400704       1.328284703590726E2
 2.672000000000000E9    -6.076652961055605      -2.882827117322833E1     1.739865497334696E1    -5.433282893458240E1    -3.984934549217162E1    -5.930620303562142E1    -7.781992066672895       1.312700483714829E2
 2.673000000000000E9    -6.111356346918574      -2.905512153973119E1     1.743079067659333E1    -5.560067945036575E1    -3.999667582470389E1    -6.018450040977545E1    -7.853818494125563       1.296597741505104E2
 2.674000000000000E9    -6.145974341280317      -2.919705939884982E1     1.746323432339277E1    -5.689573707663904E1    -4.010831291548374E1    -6.107042041283927E1    -7.921310182339654       1.280482357804891E2
 2.675000000000000E9    -6.169320698482225      -2.946797909681211E1     1.748743772350895E1    -5.818706147594589E1    -3.974664720327771E1    -6.323585838412216E1    -7.996435745766260       1.264921839147146E2
 2.676000000000000E9    -6.204650334716565      -2.964313863755897E1     1.752398286834687E1    -5.945763553169732E1    -3.976220294351004E1    -6.365501968782755E1    -8.070675364699895       1.248567854661645E2
 2.677000000000000E9    -6.240947902228660      -2.980190469842607E1     1.755219970172035E1    -6.078333658732616E1    -3.985046880606034E1    -6.670144472702566E1    -8.150728345137832       1.232365855248227E2
 2.678000000000000E9    -6.267943524276776      -3.000673703278630E1     1.757991792835220E1    -6.209068547521057E1    -3.968144476640312E1    -6.676935561579629E1    -8.227104550034204       1.216193834450898E2
 2.679000000000000E9    -6.299544985522382      -3.015231369059772E1     1.761441611000485E1    -6.339724594156235E1    -3.967349498042926E1    -6.738395485553430E1    -8.321558087892733       1.200182503580514E2
 2.680000000000000E9    -6.330965568675142      -3.043067021346864E1     1.764383696391232E1    -6.465114613058182E1    -3.961898191268980E1    -6.831247469389919E1    -8.402091125569765       1.184403845787142E2
 2.681000000000000E9    -6.363245253008882      -3.056095360866606E1     1.767356660292027E1    -6.599319476488056E1    -3.978005175210454E1    -7.084441835722082E1    -8.494192232394596       1.168271213458787E2
 2.682000000000000E9    -6.399346606909003      -3.066549923253633E1     1.770686228801927E1    -6.732718433393732E1    -3.960449604129086E1    -7.131875420692913E1    -8.580645803581925       1.152088148808516E2
 2.683000000000000E9    -6.427986507702460      -3.088042332626670E1     1.773536936816918E1    -6.864437396010933E1    -3.957883220487174E1    -7.238524217247419E1    -8.671838448234867       1.136668690642445E2
 2.684000000000000E9    -6.469267152469773      -3.105677612038813E1     1.776416955101952E1    -6.994690518836217E1    -3.966918929195091E1    -7.460955780890758E1    -8.766130571656717       1.120910109789940E2
 2.685000000000000E9    -6.501790650768188      -3.126173402989565E1     1.779756160083100E1    -7.128826529237733E1    -3.959333430434600E1    -7.545563574331683E1    -8.853548068987049       1.104547851718644E2
 2.686000000000000E9    -6.536776905459351      -3.135082738015068E1     1.783135317655637E1    -7.261235752770078E1    -3.966732920341647E1    -7.641876102590153E1    -8.960358794867830       1.088248142725601E2
 2.687000000000000E9    -6.578117437693964      -3.153304564193213E1     1.786065945708346E1    -7.394946867811002E1    -3.934887843889171E1    -7.854700047108440E1    -9.055422446675529       1.072173734901248E2
 2.688000000000000E9    -6.607901644144648      -3.166283404991201E1     1.789037649022890E1    -7.529908489583369E1    -3.946949148361344E1    -7.933746753036654E1    -9.168075910464635       1.056645224630843E2
 2.689000000000000E9    -6.644148202466611      -3.183508568183184E1     1.791962010310403E1    -7.663419352657525E1    -3.952549784195006E1    -8.073179708237022E1    -9.265890893956239       1.040588147113053E2
 2.690000000000000E9    -6.682745336422162      -3.191350195212837E1     1.794814540291416E1    -7.798383046575459E1    -3.934220798634739E1    -8.323781639862199E1    -9.366783539168154       1.024763004770424E2
 2.691000000000000E9    -6.715416628754232      -3.208028293777652E1     1.797408267171241E1    -7.933854304966243E1    -3.941669179342421E1    -8.376522879906582E1    -9.488840807229717       1.009423491493450E2
