# Version 1.00
#
freq[Hz];db:Trc1_S11;ang:Trc1_S11;db:Trc2_S21;ang:Trc2_S21;db:Trc3_S21;ang:Trc3_S21;db:Trc4_S22;ang:Trc4_S22;db:Mem5[Trc2]_S21;ang:Mem5[Trc2]_S21;db:Mem6[Trc3]_S21;ang:Mem6[Trc3]_S21;
2.600000000000000E+09;-4.834113213454809E+00;-6.860979713202990E+00;1.586849804544016E+01;4.574744047167148E+01;1.586849804544016E+01;4.574744047167148E+01;-6.442389630531685E+00;-9.612303213063603E+01;5.875381254601205E+01;5.590136416300765E+00;1.630972997441244E+01;3.698412054013914E+01;
2.601000000000000E+09;-4.843493315454365E+00;-7.101139737133938E+00;1.587572915703385E+01;4.451343326191738E+01;1.587572915703385E+01;4.451343326191738E+01;-6.439590535060031E+00;-9.811895660952705E+01;5.829970060370935E+01;6.637685966987369E+00;1.631708243224980E+01;3.573893475432551E+01;
2.602000000000000E+09;-4.858446701609478E+00;-7.260261793897459E+00;1.588349710901090E+01;4.326417080984024E+01;1.588349710901090E+01;4.326417080984024E+01;-6.438722643318167E+00;-1.001263380286649E+02;5.834211516455704E+01;5.470699894186045E+00;1.632935901427543E+01;3.448558743069438E+01;
2.603000000000000E+09;-4.854724453359841E+00;-7.483843448849793E+00;1.589277120477049E+01;4.200449407844751E+01;1.589277120477049E+01;4.200449407844751E+01;-6.426809467814519E+00;-1.020364261047176E+02;5.843676251362464E+01;5.518854381021189E+00;1.633657330198924E+01;3.325659208953503E+01;
2.604000000000000E+09;-4.870261638486703E+00;-7.633129070560891E+00;1.590532705530665E+01;4.077871624139772E+01;1.590532705530665E+01;4.077871624139772E+01;-6.421677047598680E+00;-1.040094898540606E+02;5.828202319974036E+01;5.410608723094036E+00;1.635010593029453E+01;3.200557222194938E+01;
2.605000000000000E+09;-4.884487762302446E+00;-7.854853224354016E+00;1.591140107384986E+01;3.951746057457755E+01;1.591140107384986E+01;3.951746057457755E+01;-6.405042275131654E+00;-1.059319277630037E+02;5.852947654459741E+01;5.218525276507603E+00;1.636083326896010E+01;3.077079092548443E+01;
2.606000000000000E+09;-4.895262204220905E+00;-8.045275606491137E+00;1.591612852764587E+01;3.826826834395978E+01;1.591612852764587E+01;3.826826834395978E+01;-6.393409480489059E+00;-1.078890585776011E+02;5.864221660032482E+01;3.859098787865723E+00;1.636734943563035E+01;2.952872927473528E+01;
2.607000000000000E+09;-4.901932646986272E+00;-8.219303563673163E+00;1.592486904427264E+01;3.704344479348481E+01;1.592486904427264E+01;3.704344479348481E+01;-6.387804602333493E+00;-1.097810117621100E+02;5.856255147473292E+01;5.545083365164797E+00;1.637838845176719E+01;2.832405463445756E+01;
2.608000000000000E+09;-4.920544527803156E+00;-8.422097017487037E+00;1.593583205755403E+01;3.580798344849779E+01;1.593583205755403E+01;3.580798344849779E+01;-6.378354137789620E+00;-1.116842334827683E+02;5.811485350005339E+01;7.477154673473003E+00;1.639050996539434E+01;2.709661346849334E+01;
2.609000000000000E+09;-4.931407754935000E+00;-8.633948867652466E+00;1.594363214465454E+01;3.457665738288019E+01;1.594363214465454E+01;3.457665738288019E+01;-6.363944605324604E+00;-1.136145828823333E+02;5.828841201875689E+01;6.426206352270406E+00;1.640240020665938E+01;2.586286382342897E+01;
2.610000000000000E+09;-4.936045237026140E+00;-8.831413491552327E+00;1.595503013490989E+01;3.331530657584381E+01;1.595503013490989E+01;3.331530657584381E+01;-6.362491838209947E+00;-1.155159651808660E+02;5.837983676716844E+01;5.868037459868741E+00;1.641545044168245E+01;2.460148913144127E+01;
2.611000000000000E+09;-4.947368942328604E+00;-9.005405549755984E+00;1.596908096198509E+01;3.207893173119646E+01;1.596908096198509E+01;3.207893173119646E+01;-6.351979698147766E+00;-1.174162882570178E+02;5.848689833231489E+01;6.189184458622894E+00;1.643023631725844E+01;2.338266068879198E+01;
2.612000000000000E+09;-4.968188608840297E+00;-9.243467658840347E+00;1.597635477073825E+01;3.084847304511645E+01;1.597635477073825E+01;3.084847304511645E+01;-6.349175254627660E+00;-1.192719308565974E+02;5.843657709825393E+01;4.564119327738045E+00;1.644344084280316E+01;2.215871290465423E+01;
2.613000000000000E+09;-4.977754912108855E+00;-9.389874046463047E+00;1.598561211386507E+01;2.961781958192761E+01;1.598561211386507E+01;2.961781958192761E+01;-6.341541433005300E+00;-1.211753633517734E+02;5.838824330582237E+01;6.738445105628023E+00;1.645470388480835E+01;2.093284951122475E+01;
2.614000000000000E+09;-4.988807814111511E+00;-9.584918426742497E+00;1.599511611779919E+01;2.840882748201484E+01;1.599511611779919E+01;2.840882748201484E+01;-6.328131541981685E+00;-1.230144681469824E+02;5.836791293616612E+01;4.885590321322804E+00;1.646923180956782E+01;1.972143673650114E+01;
2.615000000000000E+09;-4.993911192426179E+00;-9.805465553631054E+00;1.600358101796317E+01;2.718226583180969E+01;1.600358101796317E+01;2.718226583180969E+01;-6.320745552387951E+00;-1.248661782188126E+02;5.838207792703359E+01;5.528019980045624E+00;1.648006351253787E+01;1.849155473808382E+01;
2.616000000000000E+09;-5.008733640687461E+00;-9.967947840619210E+00;1.601816486878453E+01;2.592666267283911E+01;1.601816486878453E+01;2.592666267283911E+01;-6.312625888913245E+00;-1.267802959032086E+02;5.827808285296265E+01;4.973157133237661E+00;1.649598216532796E+01;1.724118365761226E+01;
2.617000000000000E+09;-5.023196068906067E+00;-1.017981891368161E+01;1.603056022711239E+01;2.470462135990756E+01;1.603056022711239E+01;2.470462135990756E+01;-6.302158674352714E+00;-1.285868610345775E+02;5.822395584610802E+01;6.194416941639433E+00;1.651121472738072E+01;1.602493426685903E+01;
2.618000000000000E+09;-5.037730605093302E+00;-1.040676333047294E+01;1.603747798833332E+01;2.347519639336283E+01;1.603747798833332E+01;2.347519639336283E+01;-6.296405985622733E+00;-1.304371678130064E+02;5.853409808743628E+01;5.972478458539980E+00;1.652208397791270E+01;1.480165704052573E+01;
2.619000000000000E+09;-5.038871329178749E+00;-1.058128380112220E+01;1.605463475949695E+01;2.225361757156757E+01;1.605463475949695E+01;2.225361757156757E+01;-6.295738165430819E+00;-1.322902463455703E+02;5.813362330632052E+01;6.746862766682487E+00;1.654216730303868E+01;1.356762777357427E+01;
2.620000000000000E+09;-5.058833493569960E+00;-1.082255450906635E+01;1.606218085720353E+01;2.101672307617076E+01;1.606218085720353E+01;2.101672307617076E+01;-6.294624967200334E+00;-1.340510730365849E+02;5.837168018343047E+01;5.373445545691092E+00;1.655188428176442E+01;1.234772116336842E+01;
2.621000000000000E+09;-5.066827486247561E+00;-1.100886410157466E+01;1.607491232145739E+01;1.978908579298467E+01;1.607491232145739E+01;1.978908579298467E+01;-6.278299320383047E+00;-1.359132807462572E+02;5.859201931001635E+01;5.499849942377249E+00;1.656915240065204E+01;1.111254307854014E+01;
2.622000000000000E+09;-5.084540696007204E+00;-1.120793846148969E+01;1.609034954921939E+01;1.859424254119648E+01;1.609034954921939E+01;1.859424254119648E+01;-6.276917271069054E+00;-1.377095638032228E+02;5.834685335759836E+01;5.718174643061732E+00;1.658821397243835E+01;9.906768564702729E+00;
2.623000000000000E+09;-5.089165872792035E+00;-1.140925845577846E+01;1.610313041513946E+01;1.735612769812543E+01;1.610313041513946E+01;1.735612769812543E+01;-6.271919587510817E+00;-1.394945405848652E+02;5.815098857216499E+01;4.663685051270913E+00;1.660312530710804E+01;8.661477040184336E+00;
2.624000000000000E+09;-5.104700404325134E+00;-1.162553905200994E+01;1.611850371333942E+01;1.612216019094566E+01;1.611850371333942E+01;1.612216019094566E+01;-6.259799279973356E+00;-1.413060628601830E+02;5.799836619276549E+01;6.304058770851965E+00;1.662282333872051E+01;7.439235996212944E+00;
2.625000000000000E+09;-5.120603180942326E+00;-1.181626034602968E+01;1.612677042806020E+01;1.493330503112582E+01;1.612677042806020E+01;1.493330503112582E+01;-6.263345062954632E+00;-1.430364139351963E+02;5.821253308491895E+01;6.203828628975349E+00;1.663537575684013E+01;6.234440487640642E+00;
2.626000000000000E+09;-5.130252228859403E+00;-1.200882239790006E+01;1.614159909216846E+01;1.370645085876602E+01;1.614159909216846E+01;1.370645085876602E+01;-6.262289951227799E+00;-1.448110897632468E+02;5.833397811482696E+01;3.890220828743641E+00;1.665523190918621E+01;5.002407203201430E+00;
2.627000000000000E+09;-5.149159517385594E+00;-1.222790225904446E+01;1.615404598480468E+01;1.248225720184661E+01;1.615404598480468E+01;1.248225720184661E+01;-6.254848697227716E+00;-1.466809726255424E+02;5.817769251202016E+01;4.709187061456058E+00;1.666972865187829E+01;3.778271972326786E+00;
2.628000000000000E+09;-5.152596280682769E+00;-1.241552970813491E+01;1.617167706252907E+01;1.125459398045681E+01;1.617167706252907E+01;1.125459398045681E+01;-6.243942569342677E+00;-1.484043128517685E+02;5.834870293980530E+01;6.054583152385815E+00;1.668855602207336E+01;2.545996061337397E+00;
2.629000000000000E+09;-5.168030435277627E+00;-1.266529602356458E+01;1.618556114078828E+01;1.005141180296618E+01;1.618556114078828E+01;1.005141180296618E+01;-6.245376944307665E+00;-1.501252564543068E+02;5.802162729372444E+01;6.124589800584274E+00;1.670846090040752E+01;1.324906787762233E+00;
2.630000000000000E+09;-5.186649521606661E+00;-1.282070129478524E+01;1.619908683964973E+01;8.838001374628991E+00;1.619908683964973E+01;8.838001374628991E+00;-6.251430947643952E+00;-1.518600180966349E+02;5.818550102540765E+01;4.350968177921003E+00;1.672420858016504E+01;1.261087427301517E-01;
2.631000000000000E+09;-5.198668443915334E+00;-1.306583348579214E+01;1.621341254638475E+01;7.663066098933958E+00;1.621341254638475E+01;7.663066098933958E+00;-6.249434656423775E+00;-1.536464757272269E+02;5.816837521346063E+01;2.954135612153237E+00;1.674439243661728E+01;-1.080707497925522E+00;
2.632000000000000E+09;-5.203960841735810E+00;-1.329291942317875E+01;1.622795174742541E+01;6.425941675854254E+00;1.622795174742541E+01;6.425941675854254E+00;-6.247567144386553E+00;-1.553425116728924E+02;5.825543837061537E+01;5.825591583111152E+00;1.676172580197984E+01;-2.333828087277763E+00;
2.633000000000000E+09;-5.228454147146947E+00;-1.351742554483122E+01;1.624681899546068E+01;5.232458467355499E+00;1.624681899546068E+01;5.232458467355499E+00;-6.252846825048913E+00;-1.570712436353233E+02;5.810208205655582E+01;5.128604592214627E+00;1.678430965946146E+01;-3.525722151089979E+00;
2.634000000000000E+09;-5.237489932567048E+00;-1.370834874475356E+01;1.626133067939956E+01;4.001405687416748E+00;1.626133067939956E+01;4.001405687416748E+00;-6.254132653681198E+00;-1.587834293586879E+02;5.816707659862345E+01;6.207722181347044E+00;1.680170363286601E+01;-4.780966331253493E+00;
2.635000000000000E+09;-5.258781211770081E+00;-1.396193047478741E+01;1.627417019638137E+01;2.811701246590467E+00;1.627417019638137E+01;2.811701246590467E+00;-6.254775851140727E+00;-1.605325059893083E+02;5.802783036529759E+01;4.244358740425614E+00;1.681996811677216E+01;-5.990707202442992E+00;
2.636000000000000E+09;-5.263889544500982E+00;-1.414362666195746E+01;1.628950654435247E+01;1.571752228150651E+00;1.628950654435247E+01;1.571752228150651E+00;-6.253353997456235E+00;-1.621917548403011E+02;5.807564500819788E+01;3.639531825961280E+00;1.683896243108726E+01;-7.235338580404309E+00;
2.637000000000000E+09;-5.284694274995943E+00;-1.438905231302650E+01;1.630624475852612E+01;3.859173362229315E-01;1.630624475852612E+01;3.859173362229315E-01;-6.257491164534759E+00;-1.639162040568756E+02;5.832557671986812E+01;4.778951078158771E+00;1.685924190951524E+01;-8.431301804146406E+00;
2.638000000000000E+09;-5.299514927325464E+00;-1.456036438518155E+01;1.632386111457939E+01;-8.046103999199020E-01;1.632386111457939E+01;-8.046103999199020E-01;-6.263620230221942E+00;-1.656037307144460E+02;5.809602853496310E+01;5.097972413201242E+00;1.687904678409814E+01;-9.654994489099492E+00;
2.639000000000000E+09;-5.307622768096736E+00;-1.475910301151981E+01;1.634238060390384E+01;-2.033497033860547E+00;1.634238060390384E+01;-2.033497033860547E+00;-6.275817366568579E+00;-1.672861698918306E+02;5.807624011871382E+01;4.581380359371066E+00;1.690288058258604E+01;-1.089472617996384E+01;
2.640000000000000E+09;-5.330905734643604E+00;-1.502695621263810E+01;1.635990585756577E+01;-3.229590853944961E+00;1.635990585756577E+01;-3.229590853944961E+00;-6.272632400632324E+00;-1.690519080089803E+02;5.795713534017342E+01;5.363647116461128E+00;1.692563162971187E+01;-1.210412226582270E+01;
2.641000000000000E+09;-5.340333634001788E+00;-1.523288482279747E+01;1.638102487485043E+01;-4.443267441937245E+00;1.638102487485043E+01;-4.443267441937245E+00;-6.283706985920170E+00;-1.706512981179422E+02;5.820988313878594E+01;4.900690046592675E+00;1.694897905958975E+01;-1.334045546961886E+01;
2.642000000000000E+09;-5.361022821247964E+00;-1.547466003461889E+01;1.639644174310976E+01;-5.648422333963305E+00;1.639644174310976E+01;-5.648422333963305E+00;-6.292036376852048E+00;-1.723264463212558E+02;5.811632636302949E+01;4.157474013888922E+00;1.697050140961021E+01;-1.456542619071724E+01;
2.643000000000000E+09;-5.374858186309618E+00;-1.564192993164187E+01;1.641804949992700E+01;-6.839045457100398E+00;1.641804949992700E+01;-6.839045457100398E+00;-6.296172553984588E+00;-1.740310232053168E+02;5.800132605419322E+01;5.868437964548645E+00;1.699696701445244E+01;-1.579696208440204E+01;
2.644000000000000E+09;-5.393834371022895E+00;-1.587147360809555E+01;1.643308699755612E+01;-8.030611134090604E+00;1.643308699755612E+01;-8.030611134090604E+00;-6.305053703507259E+00;-1.755853697485320E+02;5.786451036651129E+01;3.702039381056239E+00;1.701484492901044E+01;-1.701070868296607E+01;
2.645000000000000E+09;-5.401446745183255E+00;-1.609139248420150E+01;1.645580387113849E+01;-9.277542770141705E+00;1.645580387113849E+01;-9.277542770141705E+00;-6.320234197606549E+00;-1.773211069096608E+02;5.813748460399562E+01;7.036656875161757E+00;1.703983598604921E+01;-1.827506348734387E+01;
2.646000000000000E+09;-5.423822326244206E+00;-1.634856675000858E+01;1.647448160592132E+01;-1.049730168646979E+01;1.647448160592132E+01;-1.049730168646979E+01;-6.337244390486598E+00;-1.789498622533231E+02;5.826787796125744E+01;4.902044261216175E+00;1.706376461085052E+01;-1.952238875286827E+01;
2.647000000000000E+09;-5.446064183516111E+00;-1.654676143284742E+01;1.649643225428968E+01;-1.167712391915110E+01;1.649643225428968E+01;-1.167712391915110E+01;-6.351121096402896E+00;1.794307433124823E+02;5.800014074236816E+01;6.285368804233583E+00;1.708797452555367E+01;-2.073006091823101E+01;
2.648000000000000E+09;-5.457783830648378E+00;-1.679109152325852E+01;1.651382211043090E+01;-1.288883864649620E+01;1.651382211043090E+01;-1.288883864649620E+01;-6.360147329012761E+00;1.777781835730544E+02;5.834532768376513E+01;5.296140643415120E+00;1.711076292802139E+01;-2.194975199190512E+01;
2.649000000000000E+09;-5.474774074736005E+00;-1.702852160989537E+01;1.653681786798683E+01;-1.409575448109538E+01;1.653681786798683E+01;-1.409575448109538E+01;-6.383433235438493E+00;1.761705891505005E+02;5.805062934221652E+01;3.818182847216256E+00;1.713577537751777E+01;-2.319911847942472E+01;
2.650000000000000E+09;-5.492762889664009E+00;-1.722852732991476E+01;1.655721371265171E+01;-1.531388806589952E+01;1.655721371265171E+01;-1.531388806589952E+01;-6.398970388523340E+00;1.744898364549214E+02;5.795530175084826E+01;4.536347147416815E+00;1.715794853782629E+01;-2.444820130487432E+01;
2.651000000000000E+09;-5.511967150006597E+00;-1.747435147419594E+01;1.658090273677137E+01;-1.652527048699562E+01;1.658090273677137E+01;-1.652527048699562E+01;-6.407337149813652E+00;1.728843772767007E+02;5.816968140722526E+01;6.457315665289344E+00;1.718485920050436E+01;-2.569028275847056E+01;
2.652000000000000E+09;-5.530851522602181E+00;-1.772693814970721E+01;1.659945820794252E+01;-1.772341489989503E+01;1.659945820794252E+01;-1.772341489989503E+01;-6.445628977720379E+00;1.712774361990002E+02;5.796677574541118E+01;4.900993875664439E+00;1.720955615663713E+01;-2.691554179744575E+01;
2.653000000000000E+09;-5.547640079137270E+00;-1.791718197326813E+01;1.662478771644769E+01;-1.895368819080846E+01;1.662478771644769E+01;-1.895368819080846E+01;-6.445854818636717E+00;1.696671036051804E+02;5.801004406961546E+01;5.448408850315023E+00;1.723732274956904E+01;-2.818052954190620E+01;
2.654000000000000E+09;-5.569984537627176E+00;-1.816416925442109E+01;1.664455446926108E+01;-2.017787859512987E+01;1.664455446926108E+01;-2.017787859512987E+01;-6.478022355771604E+00;1.680439041316166E+02;5.788779320853187E+01;4.081854202332849E+00;1.725934776838621E+01;-2.944022045576234E+01;
2.655000000000000E+09;-5.586342276119369E+00;-1.836701596531553E+01;1.667066500897558E+01;-2.136622680953118E+01;1.667066500897558E+01;-2.136622680953118E+01;-6.499483646588674E+00;1.664150886893315E+02;5.823705942649006E+01;5.104994788072760E+00;1.729005934795033E+01;-3.066355810895708E+01;
2.656000000000000E+09;-5.597090630566326E+00;-1.859084967169594E+01;1.669631879501083E+01;-2.262530799732183E+01;1.669631879501083E+01;-2.262530799732183E+01;-6.524607216728695E+00;1.648093468958691E+02;5.772419144309915E+01;5.610822130322293E+00;1.731619601154143E+01;-3.194391618679932E+01;
2.657000000000000E+09;-5.629914620785059E+00;-1.885116791761321E+01;1.671708962245315E+01;-2.382699329676334E+01;1.671708962245315E+01;-2.382699329676334E+01;-6.552654915867833E+00;1.631412783491643E+02;5.795500611066817E+01;4.371936455649457E+00;1.734214896121090E+01;-3.319768213677018E+01;
2.658000000000000E+09;-5.653399533531513E+00;-1.902324969777364E+01;1.674237590111176E+01;-2.503746224385921E+01;1.674237590111176E+01;-2.503746224385921E+01;-6.584030583995096E+00;1.615993394829236E+02;5.809886598366624E+01;6.475649863175029E+00;1.737067884106630E+01;-3.444561805187285E+01;
2.659000000000000E+09;-5.664090560208262E+00;-1.927731207152123E+01;1.676675861554550E+01;-2.626041561950106E+01;1.676675861554550E+01;-2.626041561950106E+01;-6.617672401988934E+00;1.600059711092080E+02;5.808352544276286E+01;5.187042306322565E+00;1.739490644885948E+01;-3.569658966917059E+01;
2.660000000000000E+09;-5.692787322968154E+00;-1.948565554366038E+01;1.678830196955786E+01;-2.746605371777349E+01;1.678830196955786E+01;-2.746605371777349E+01;-6.643150334610316E+00;1.584254590794314E+02;5.810147715118117E+01;4.572714816425814E+00;1.742291631361620E+01;-3.695846045461580E+01;
2.661000000000000E+09;-5.706598326541314E+00;-1.974186596325085E+01;1.681330817244119E+01;-2.871257482250771E+01;1.681330817244119E+01;-2.871257482250771E+01;-6.671758497559811E+00;1.567883903401355E+02;5.791734126364932E+01;4.741355950815885E+00;1.744825767822023E+01;-3.822839960528149E+01;
2.662000000000000E+09;-5.725441325301633E+00;-1.992678353548567E+01;1.683950690718575E+01;-2.993420089564211E+01;1.683950690718575E+01;-2.993420089564211E+01;-6.707511909178625E+00;1.551965601720212E+02;5.794095549871867E+01;5.103023706999832E+00;1.747511744431304E+01;-3.950109196805586E+01;
2.663000000000000E+09;-5.751237450025549E+00;-2.012679545276698E+01;1.686299710884256E+01;-3.115599081835973E+01;1.686299710884256E+01;-3.115599081835973E+01;-6.742015986393877E+00;1.536008122446044E+02;5.795536077877777E+01;5.140262738714396E+00;1.750504316334124E+01;-4.076655181865165E+01;
2.664000000000000E+09;-5.766126587845354E+00;-2.036284410814691E+01;1.689155373169570E+01;-3.240611758154242E+01;1.689155373169570E+01;-3.240611758154242E+01;-6.771973548164068E+00;1.520401507263882E+02;5.790446257444437E+01;4.959098138525524E+00;1.753266391237793E+01;-4.204076141185867E+01;
2.665000000000000E+09;-5.789216027528573E+00;-2.054102971872854E+01;1.691769697659253E+01;-3.362373354122796E+01;1.691769697659253E+01;-3.362373354122796E+01;-6.810080827260458E+00;1.504312396206323E+02;5.794946853965718E+01;4.923435168510993E+00;1.756224302439982E+01;-4.331267631811458E+01;
2.666000000000000E+09;-5.816543230860995E+00;-2.083844897176129E+01;1.694323285876780E+01;-3.486249373298556E+01;1.694323285876780E+01;-3.486249373298556E+01;-6.849026049512874E+00;1.488657474908784E+02;5.790900988108596E+01;3.494427392867411E+00;1.759009662541582E+01;-4.459889176002748E+01;
