#  HZ   S   DB   R     50.00 
! Rohde & Schwarz Vector Network Analyzer 
! Rohde-Schwarz,ZNB8-2Port,1311601042101540,3.40
! Created: UTC 6/28/2024, 7:41:02 AM
! freq[Hz]                db:S11                  ang:S11                 db:S21                  ang:S21                 db:S12                  ang:S12                 db:S22                  ang:S22
 2.600000000000000E9    -4.832890068181236      -6.762571679455781       1.584359766769883E1     4.516307719742538E1    -4.262160578642047E1     4.140897296274791E1    -6.448485662616628      -9.620364009679881E1
 2.601000000000000E9    -4.854516936458983      -7.041877434876368       1.586044466446936E1     4.419139061425063E1    -4.227378255154807E1     4.000456729112339E1    -6.443077612645610      -9.817632528129869E1
 2.602000000000000E9    -4.862388060442907      -7.298358509833530       1.587506756036878E1     4.309544796061756E1    -4.235313140000193E1     3.828433222580395E1    -6.445462771023110      -1.001041207289013E2
 2.603000000000000E9    -4.867617408294080      -7.489517722254056       1.588225831197177E1     4.192178696047802E1    -4.237533683964294E1     3.627588934266369E1    -6.432246590921549      -1.020776055590316E2
 2.604000000000000E9    -4.885399957844111      -7.687411691549677       1.589752438107899E1     4.071298946997072E1    -4.232896557976585E1     3.586358689474612E1    -6.420526207572036      -1.040393515658874E2
 2.605000000000000E9    -4.896654080620648      -7.905548600408961       1.590495968329931E1     3.947011520859938E1    -4.245897407847353E1     3.373339847358368E1    -6.413529998329405      -1.059680013592259E2
 2.606000000000000E9    -4.905330347481339      -8.088991979345247       1.591057397878005E1     3.823150645638918E1    -4.227687190903013E1     3.289464417915953E1    -6.407398943225346      -1.079272300720370E2
 2.607000000000000E9    -4.914033647139233      -8.271056871425996       1.591887253859857E1     3.701227464901120E1    -4.238213930089938E1     3.243549496813741E1    -6.390848312437080      -1.097817527280446E2
 2.608000000000000E9    -4.933876707835831      -8.461518606106086       1.592952760382771E1     3.578692479892545E1    -4.236324309805875E1     2.942880388633392E1    -6.388045756695877      -1.116924708316537E2
 2.609000000000000E9    -4.941879269659283      -8.676254565643822       1.593749848801185E1     3.453735447766705E1    -4.208850627247809E1     2.870016638790580E1    -6.375464224620748      -1.136343230110022E2
 2.610000000000000E9    -4.953154543240533      -8.853509705890966       1.594791861122424E1     3.327938582544761E1    -4.183392037925089E1     2.838276155604107E1    -6.368319694008742      -1.155763592016097E2
 2.611000000000000E9    -4.963905838231359      -9.017122479521795       1.595979751753416E1     3.205181713093446E1    -4.193965361912067E1     2.560123679542487E1    -6.362176969203786      -1.174544832987484E2
 2.612000000000000E9    -4.975191534013882      -9.281951981515325       1.597080372287833E1     3.082054770873636E1    -4.228050973198087E1     2.653481316306690E1    -6.349352009594982      -1.193316347022428E2
 2.613000000000000E9    -4.988009355502124      -9.442846359247557       1.598090431759223E1     2.957368294254573E1    -4.222696734866773E1     2.405625594621146E1    -6.347716597427109      -1.212188139027480E2
 2.614000000000000E9    -4.996133635406824      -9.640099576214103       1.599025843936289E1     2.837042124009483E1    -4.205039717880265E1     2.456091060528767E1    -6.331330570368690      -1.230406063915863E2
 2.615000000000000E9    -5.003782057553527      -9.865930708657773       1.599878013935389E1     2.713137969541746E1    -4.192488725339743E1     2.184611070689510E1    -6.326855138342047      -1.249393803517127E2
 2.616000000000000E9    -5.019560147274661      -1.004327490667292E1     1.601258040545645E1     2.586818604734085E1    -4.200601688231558E1     2.253998575295770E1    -6.316946581193306      -1.267759055389742E2
 2.617000000000000E9    -5.036536463578745      -1.021759126549626E1     1.602469538449858E1     2.466553946785830E1    -4.212220761732105E1     1.950711725740149E1    -6.307611758694963      -1.286057623542159E2
 2.618000000000000E9    -5.047047426630034      -1.046039653137298E1     1.603259099375060E1     2.342579705357508E1    -4.195652100634820E1     1.906278475829665E1    -6.304849864523541      -1.304994112908606E2
 2.619000000000000E9    -5.049147434060140      -1.067655213183296E1     1.604836777966918E1     2.220922167853086E1    -4.185511056593057E1     1.722017879456572E1    -6.298042700213373      -1.322904930389816E2
 2.620000000000000E9    -5.073390629302836      -1.086850753275631E1     1.605618510703859E1     2.097132454686140E1    -4.201438001391591E1     1.732499400614180E1    -6.296962031559737      -1.341246701031365E2
 2.621000000000000E9    -5.076407239680647      -1.103059130338905E1     1.606899473096257E1     1.975585605552225E1    -4.205112807804796E1     1.572865183745647E1    -6.283632331587540      -1.359537396823760E2
 2.622000000000000E9    -5.094640904824406      -1.126474493354795E1     1.608444069590405E1     1.854561904097602E1    -4.184705936546987E1     1.407962416586530E1    -6.281592470311507      -1.377541467994837E2
 2.623000000000000E9    -5.107582316945337      -1.144185994716144E1     1.609451398517517E1     1.731535573154004E1    -4.189775096836076E1     1.269734127383487E1    -6.273405029354780      -1.395314645017597E2
 2.624000000000000E9    -5.114709347463848      -1.165441657496186E1     1.611243536524296E1     1.608071699885190E1    -4.199710508811346E1     1.189216212519326E1    -6.271140132917229      -1.413258492802973E2
 2.625000000000000E9    -5.135593592824526      -1.185681267209012E1     1.612057814139627E1     1.488457448684064E1    -4.172216745676081E1     1.034292395477446E1    -6.270602825708623      -1.430924285697515E2
 2.626000000000000E9    -5.141213807140423      -1.207027120154170E1     1.613591607313153E1     1.366380170781223E1    -4.173887663986925E1     8.832972952293797      -6.266563665166499      -1.448654015671976E2
 2.627000000000000E9    -5.158823854680459      -1.227929811589679E1     1.614761352499919E1     1.244095693943178E1    -4.193889823211136E1     7.053716659094867      -6.265878228801896      -1.466813943748110E2
 2.628000000000000E9    -5.165969114866637      -1.249063427606586E1     1.616444806498751E1     1.120651204109130E1    -4.187521039027899E1     7.923320767495843      -6.251634335601535      -1.483516661909225E2
 2.629000000000000E9    -5.183615378502076      -1.270664583014749E1     1.617861867978782E1     1.000317478805897E1    -4.174396116365294E1     5.044311440009433      -6.259998587124881      -1.501751466156255E2
 2.630000000000000E9    -5.196020168200008      -1.287834131062415E1     1.619155622036267E1     8.806788368829688      -4.162494619191199E1     4.655176920036652      -6.257465172291198      -1.518920550872463E2
 2.631000000000000E9    -5.212505603871880      -1.315839198709340E1     1.620556521000398E1     7.605620829590461      -4.171024720053907E1     2.903463665687021      -6.257033013454754      -1.536495020199461E2
 2.632000000000000E9    -5.220476168829927      -1.334377950993946E1     1.622205953930389E1     6.380392952543158      -4.187164223509991E1     2.536120609791076      -6.256660163404291      -1.553945821537941E2
 2.633000000000000E9    -5.241603081618483      -1.355895056286611E1     1.623923948453004E1     5.188097971549095      -4.164071412364594E1     1.369848166360800      -6.257641576734500      -1.570863671998338E2
 2.634000000000000E9    -5.248739995782552      -1.374721314522335E1     1.625489028532822E1     3.944288917754412      -4.156662380514858E1     8.571768221283554E-1   -6.255270343821859      -1.588290261521567E2
 2.635000000000000E9    -5.269113453694315      -1.401613584131687E1     1.626695177581116E1     2.771862715461614      -4.158799207182290E1    -9.264204771216171E-1   -6.261767043845587      -1.605460049733971E2
 2.636000000000000E9    -5.271851566989416      -1.417500354683394E1     1.628470024067702E1     1.530698805663275      -4.166407468051206E1    -3.135663009019665      -6.259208090217557      -1.622388523362428E2
 2.637000000000000E9    -5.296299758335391      -1.440066260846795E1     1.629828244040933E1     3.580542364902154E-1   -4.161658504262640E1    -3.724232669858454      -6.269186842044746      -1.639649728193571E2
 2.638000000000000E9    -5.309174407393137      -1.463497665952561E1     1.631793652763864E1    -8.591955876021579E-1   -4.164933209677075E1    -3.588555366972162      -6.267537671977178      -1.656245341692931E2
 2.639000000000000E9    -5.322155819886900      -1.484383002007096E1     1.633612315848006E1    -2.085418660935478      -4.148376178273219E1    -6.979671707705752      -6.278198079638178      -1.673460553403526E2
 2.640000000000000E9    -5.342138531746343      -1.505406337235438E1     1.635374468005745E1    -3.260423321659601      -4.156727024864095E1    -8.605330765317586      -6.288688684655805      -1.690542829089623E2
 2.641000000000000E9    -5.353738183159632      -1.532515960158722E1     1.637283066152981E1    -4.491105449174027      -4.160618900893294E1    -9.981314184340665      -6.289910894165160      -1.706521038656997E2
 2.642000000000000E9    -5.367376966698677      -1.550848293549538E1     1.639111186428156E1    -5.699209492692723      -4.142954983365696E1    -1.097058656720735E1    -6.293267831268019      -1.723648034843089E2
 2.643000000000000E9    -5.384966645970318      -1.565261853528184E1     1.641454276625836E1    -6.889813771568210      -4.123407661206680E1    -1.075929811278704E1    -6.301514635970596      -1.740553608393103E2
 2.644000000000000E9    -5.404753028978824      -1.593180432452158E1     1.642679142711732E1    -8.082411850646302      -4.134577632932958E1    -1.245460699297527E1    -6.309016905201887      -1.756425915373353E2
 2.645000000000000E9    -5.414103420467447      -1.615408032764907E1     1.645086225051546E1    -9.327034001258896      -4.151206037378613E1    -1.416927491826320E1    -6.327591774854369      -1.773582558505708E2
 2.646000000000000E9    -5.432414250125380      -1.640072673180313E1     1.646891695643816E1    -1.054506916507924E1    -4.152658276942519E1    -1.434337858031844E1    -6.345268184739542      -1.789845846751697E2
 2.647000000000000E9    -5.454271032951362      -1.658830342406465E1     1.648935296849906E1    -1.172240308696347E1    -4.142906887922113E1    -1.484637094148671E1    -6.354262811888395       1.793591176437584E2
 2.648000000000000E9    -5.462361587849777      -1.682427878889515E1     1.650990676102265E1    -1.293163711318096E1    -4.139496680663041E1    -1.746428085938478E1    -6.368300293774885       1.777468675927603E2
 2.649000000000000E9    -5.486821839467720      -1.706674153048375E1     1.653048820445298E1    -1.415104144652366E1    -4.111448392826951E1    -1.921527008107748E1    -6.390873811207536       1.761212989926278E2
 2.650000000000000E9    -5.501866319670876      -1.727948408552515E1     1.655080212299991E1    -1.535651249096642E1    -4.133610806509411E1    -2.102025626022171E1    -6.407490729763642       1.744647232580381E2
 2.651000000000000E9    -5.524839910650491      -1.752604592382261E1     1.657279442901401E1    -1.656800460097307E1    -4.127628272748395E1    -2.073283033736467E1    -6.423683632322934       1.728376345832305E2
 2.652000000000000E9    -5.540347735029809      -1.774647187577337E1     1.659445337359669E1    -1.777231483355436E1    -4.125268066840508E1    -2.162664071719265E1    -6.448076519478120       1.712178425168310E2
 2.653000000000000E9    -5.559413001047107      -1.796755417756272E1     1.661918067233292E1    -1.900018311674728E1    -4.080728947175026E1    -2.347467631244498E1    -6.454761315748434       1.695955678114248E2
 2.654000000000000E9    -5.571285139716382      -1.820097450026931E1     1.664031896776144E1    -2.022403615001887E1    -4.094593971775795E1    -2.438710771774794E1    -6.481240264236287       1.680436240063725E2
 2.655000000000000E9    -5.595560772162030      -1.840328281162247E1     1.666621258649979E1    -2.141179388694723E1    -4.095527687668372E1    -2.458127961086654E1    -6.508982363437349       1.663924156030205E2
 2.656000000000000E9    -5.612921560572489      -1.858654885071919E1     1.668919965311128E1    -2.265799687236855E1    -4.104933671027226E1    -2.669397723033106E1    -6.526494583180980       1.647461458086049E2
 2.657000000000000E9    -5.638553937248910      -1.887096017862774E1     1.671126762074886E1    -2.386664656362248E1    -4.110867765888151E1    -2.763177504109073E1    -6.564137857825876       1.631598523924660E2
 2.658000000000000E9    -5.662623660566666      -1.905834743454856E1     1.673592482666644E1    -2.508205456491534E1    -4.084119817416168E1    -2.912808745024192E1    -6.583588549898725       1.615538500008175E2
 2.659000000000000E9    -5.676079668659096      -1.928968041054237E1     1.676195707549714E1    -2.630365729689428E1    -4.092237040491558E1    -3.072480966548756E1    -6.622028541836525       1.599607019253993E2
 2.660000000000000E9    -5.707203146510214      -1.953552852456653E1     1.678448964106820E1    -2.752292710376167E1    -4.098645798492753E1    -3.180370796932122E1    -6.651323821758267       1.583414349486463E2
 2.661000000000000E9    -5.718312095966781      -1.979047951411849E1     1.680642832003167E1    -2.875339592563298E1    -4.094673637493244E1    -3.299685771905621E1    -6.675162501742510       1.567541801831771E2
 2.662000000000000E9    -5.734921124852598      -1.995601034424455E1     1.683276277767523E1    -2.998264632304583E1    -4.108052980835513E1    -3.355836061159149E1    -6.715597807770974       1.551830052700381E2
 2.663000000000000E9    -5.757630756619255      -2.020356161377432E1     1.685779231643579E1    -3.120906091201935E1    -4.077452432877112E1    -3.465617910392545E1    -6.744354820731270       1.535975610359638E2
 2.664000000000000E9    -5.779346029235129      -2.042115921307766E1     1.688484797372182E1    -3.245102127114866E1    -4.083726198630531E1    -3.646110058259916E1    -6.778310048267942       1.519569426016103E2
 2.665000000000000E9    -5.803270949138136      -2.059009163367456E1     1.691153373399726E1    -3.367089720933242E1    -4.110236109466155E1    -3.782898670078284E1    -6.818037874235436       1.503696938090308E2
 2.666000000000000E9    -5.829384535448076      -2.088992719611247E1     1.693762431172853E1    -3.491155175333946E1    -4.073012976897819E1    -4.070780234514561E1    -6.855101564233323       1.488050823331604E2
 2.667000000000000E9    -5.853238508057662      -2.106720662891832E1     1.696229436854317E1    -3.613229312235212E1    -4.065391865203244E1    -4.091788192417177E1    -6.901706674256742       1.471636725835765E2
 2.668000000000000E9    -5.875640559839431      -2.125458699455556E1     1.698920399067255E1    -3.738682514849921E1    -4.071531024124081E1    -4.165930349671955E1    -6.936854539139542       1.456160320926450E2
 2.669000000000000E9    -5.892530592661575      -2.145988465024946E1     1.701570983834748E1    -3.859211452294922E1    -4.059987098683208E1    -4.371267372541571E1    -6.982886569839975       1.440401463221992E2
 2.670000000000000E9    -5.921188645750629      -2.167204765898153E1     1.704715097491182E1    -3.983934587241811E1    -4.041921171923039E1    -4.461206773362463E1    -7.033302097464032       1.424578737191224E2
 2.671000000000000E9    -5.941504016878557      -2.188808758467576E1     1.707132136494684E1    -4.107064765097621E1    -4.040543373751272E1    -4.470412633283554E1    -7.075106074671041       1.408576635326109E2
 2.672000000000000E9    -5.964169530678484      -2.213277751620864E1     1.709691705665272E1    -4.234838920822548E1    -4.069761337436776E1    -4.614010146511988E1    -7.127995105304738       1.392628115774769E2
 2.673000000000000E9    -5.994238855309114      -2.233473762489707E1     1.712559426915665E1    -4.356424088330968E1    -4.054237988140730E1    -4.833251381275873E1    -7.175069757798549       1.376776281303138E2
 2.674000000000000E9    -6.013502335933709      -2.250267974075019E1     1.715654569614852E1    -4.482476343950771E1    -4.037571116378410E1    -4.921138038750646E1    -7.231692533614432       1.361233419088530E2
 2.675000000000000E9    -6.038115618091147      -2.276776951605202E1     1.717836831990270E1    -4.605688177861048E1    -4.051424087641092E1    -5.158554001562826E1    -7.277293976482136       1.345484011362630E2
 2.676000000000000E9    -6.066875254144124      -2.296623037650712E1     1.721245404548697E1    -4.729421340032810E1    -4.036157155460352E1    -5.294205321749160E1    -7.340300299963784       1.328944495523968E2
 2.677000000000000E9    -6.097973121530448      -2.315398882263453E1     1.723612349118248E1    -4.856550299925284E1    -4.049350140211682E1    -5.226079105042586E1    -7.391655721057532       1.313377863364272E2
 2.678000000000000E9    -6.119396820324593      -2.340176202350289E1     1.726369051722822E1    -4.982578439919963E1    -4.038589021111687E1    -5.453290163289210E1    -7.453870468432338       1.296995500044119E2
 2.679000000000000E9    -6.147281209317220      -2.356081897468825E1     1.729572336490891E1    -5.108243565789058E1    -4.053801754054942E1    -5.713282489932132E1    -7.508237854278707       1.281605745698802E2
 2.680000000000000E9    -6.172079263182527      -2.377769809002972E1     1.732226079947926E1    -5.229818089717640E1    -4.040345751042799E1    -5.664748915893618E1    -7.565183757665803       1.265609873446961E2
 2.681000000000000E9    -6.201439771943242      -2.397707813974024E1     1.735140350459890E1    -5.360162693650765E1    -4.018040502307889E1    -5.855488921544415E1    -7.634805205504364       1.249540500589652E2
 2.682000000000000E9    -6.229888344224861      -2.413171271390984E1     1.738137266985246E1    -5.487149203436189E1    -4.036028346741787E1    -5.885140928287435E1    -7.705332448987448       1.233669893326365E2
 2.683000000000000E9    -6.259023189359937      -2.436502079368899E1     1.740795914699152E1    -5.615359062938673E1    -4.018512676032562E1    -6.026568742852646E1    -7.777539309403583       1.217490777645200E2
 2.684000000000000E9    -6.297732701578774      -2.457804693060993E1     1.743657021472977E1    -5.739996329691458E1    -4.012289879134940E1    -6.232325529226814E1    -7.832881209773705       1.202128108381043E2
 2.685000000000000E9    -6.318043519737060      -2.474615971365747E1     1.746939992856529E1    -5.869802622069510E1    -3.986757550803400E1    -6.361532376342242E1    -7.912173595214668       1.185880811251156E2
 2.686000000000000E9    -6.348835326106293      -2.494370643022376E1     1.750143383054535E1    -5.996528884560563E1    -4.003685897385350E1    -6.549763358196040E1    -7.984115374837991       1.170333790509374E2
 2.687000000000000E9    -6.381505820356250      -2.512758515485336E1     1.752848139068740E1    -6.125837898976064E1    -4.001873796218902E1    -6.648845541523129E1    -8.057505561053674       1.154098833013734E2
 2.688000000000000E9    -6.412012128161013      -2.529898537161388E1     1.755754310546967E1    -6.255776916580317E1    -4.002947376889100E1    -6.816726197802248E1    -8.138736236957929       1.138102527332205E2
 2.689000000000000E9    -6.441849795046222      -2.549682898529989E1     1.758753947754404E1    -6.382610403012684E1    -4.002709988375916E1    -6.790122640133728E1    -8.215414523341479       1.122427202448392E2
 2.690000000000000E9    -6.463555533491673      -2.563006407424257E1     1.761531320419712E1    -6.513993947930933E1    -3.986372573116640E1    -6.954905832868937E1    -8.291132601206920       1.106467139966829E2
 2.691000000000000E9    -6.502355215988063      -2.583746119725014E1     1.764112282467284E1    -6.642721141046447E1    -3.988963207659354E1    -7.149632434178224E1    -8.389103218136924       1.089613810010130E2
