# Version 1.00
#
freq[Hz];re:Trc1_S11;im:Trc1_S11;re:Trc2_S22;im:Trc2_S22;re:Trc3_S21;im:Trc3_S21;
2.000000000000000E+09;6.063400258734382E-01;5.868583203045120E-01;5.629059455203750E-01;6.368074331803956E-01;-8.074402577216563E-04;2.285424973520296E-03;
2.001250000000000E+09;6.390844857086888E-01;5.511645413792402E-01;5.981225490493077E-01;6.041131035807259E-01;-6.508770546623338E-04;2.274619113567641E-03;
2.002500000000000E+09;6.693216632747512E-01;5.137204121339799E-01;6.311704681981297E-01;5.696486592164806E-01;-5.266033427569028E-04;2.338087820607926E-03;
2.003750000000000E+09;6.975480505311848E-01;4.745349150599629E-01;6.621825771495731E-01;5.330717042869928E-01;-3.731735605358480E-04;2.347259279312078E-03;
2.005000000000000E+09;7.234288625430030E-01;4.337336552045142E-01;6.910501684334213E-01;4.949112283199594E-01;-2.343009359142029E-04;2.341926156714070E-03;
2.006250000000000E+09;7.470555907442985E-01;3.916375098116895E-01;7.181468830614675E-01;4.550337338504763E-01;-7.744701176145827E-05;2.371570459570487E-03;
2.007500000000000E+09;7.682208682169384E-01;3.478771423823079E-01;7.426699512978456E-01;4.137547310960673E-01;6.209845491898752E-05;2.327352871337898E-03;
2.008750000000000E+09;7.868305835324453E-01;3.032375730723563E-01;7.648714855865226E-01;3.709463641824787E-01;2.146587498251218E-04;2.327163580101530E-03;
2.010000000000000E+09;8.030382058450930E-01;2.575624549115094E-01;7.846680175146562E-01;3.271130701246513E-01;3.450265264747944E-04;2.262565640647783E-03;
2.011250000000000E+09;8.162952753840425E-01;2.109985398507831E-01;8.018835460103270E-01;2.819093762855636E-01;4.791700484444808E-04;2.257537879969140E-03;
2.012500000000000E+09;8.269712222345125E-01;1.638395020283054E-01;8.165928498519796E-01;2.358509080204823E-01;6.037957860714138E-04;2.158590225045014E-03;
2.013750000000000E+09;8.349777399830005E-01;1.158496789512063E-01;8.286253171467416E-01;1.888171564677819E-01;7.146517557228738E-04;2.090544716230084E-03;
2.015000000000000E+09;8.401247919220366E-01;6.746557563535314E-02;8.379164532755031E-01;1.412125265283255E-01;8.407903256030379E-04;2.044121256390812E-03;
2.016250000000000E+09;8.423376948074260E-01;1.893082368517158E-02;8.446394284755190E-01;9.303831150752781E-02;9.619410973866051E-04;1.971721099118483E-03;
2.017500000000000E+09;8.421538242098628E-01;-2.970026030587949E-02;8.483579955914189E-01;4.455793734831297E-02;1.065085529141594E-03;1.910144676387143E-03;
2.018750000000000E+09;8.387912934729918E-01;-7.825203810179214E-02;8.495073291003202E-01;-4.151363268668760E-03;1.176827745203625E-03;1.804654542892222E-03;
2.020000000000000E+09;8.328306663714843E-01;-1.265916162290864E-01;8.476566034292662E-01;-5.309708289935054E-02;1.259922972660216E-03;1.713270525534339E-03;
2.021250000000000E+09;8.240250327002872E-01;-1.744886032585469E-01;8.429772179210843E-01;-1.013753805465405E-01;1.316624445145627E-03;1.595540283716596E-03;
2.022500000000000E+09;8.123954688438944E-01;-2.219535634459734E-01;8.358883922637322E-01;-1.495374958152834E-01;1.424208905451259E-03;1.500168391773648E-03;
2.023750000000000E+09;7.980889317616382E-01;-2.685994906209369E-01;8.255886819667948E-01;-1.972815840332163E-01;1.463119664565641E-03;1.408180807831288E-03;
2.025000000000000E+09;7.812875231398547E-01;-3.143323177366115E-01;8.128812668041600E-01;-2.445777697050768E-01;1.502570144259193E-03;1.318635473219664E-03;
2.026250000000000E+09;7.614324385955327E-01;-3.590022835620595E-01;7.972636902550913E-01;-2.909180369312901E-01;1.567300905822433E-03;1.239598473157769E-03;
2.027500000000000E+09;7.391528063645887E-01;-4.025840552312324E-01;7.790481894199378E-01;-3.365144851486019E-01;1.634335422193988E-03;1.137498231465257E-03;
2.028750000000000E+09;7.142941850248956E-01;-4.449989074194207E-01;7.581743794367221E-01;-3.806394143328286E-01;1.671092051353102E-03;1.008194226761077E-03;
2.030000000000000E+09;6.872321678232173E-01;-4.855638709026729E-01;7.346752433616298E-01;-4.238231248538396E-01;1.661804945785555E-03;9.304990678763216E-04;
2.031250000000000E+09;6.577488946312304E-01;-5.247677319931267E-01;7.089156517850662E-01;-4.656803039265642E-01;1.739658804897644E-03;8.497602460712396E-04;
2.032500000000000E+09;6.257575103967460E-01;-5.617667991311877E-01;6.805369509979462E-01;-5.057723468048965E-01;1.757530207747114E-03;7.323826986177353E-04;
2.033750000000000E+09;5.919220236727265E-01;-5.975436211117501E-01;6.497117383466701E-01;-5.443349535451163E-01;1.776565293570975E-03;6.203615076795506E-04;
2.035000000000000E+09;5.561936259025355E-01;-6.309285529429500E-01;6.170445514882348E-01;-5.810623424030404E-01;1.803241046245074E-03;5.321994444754299E-04;
2.036250000000000E+09;5.179192729675185E-01;-6.621493607145226E-01;5.818647874137377E-01;-6.157880578709298E-01;1.797364604180363E-03;4.407571605258816E-04;
2.037500000000000E+09;4.785776429690746E-01;-6.913202915953045E-01;5.447897909610372E-01;-6.486422313259441E-01;1.834327013545077E-03;3.062732530535193E-04;
2.038750000000000E+09;4.371380894805086E-01;-7.181133802436646E-01;5.060248892688738E-01;-6.792290533374610E-01;1.852481628198349E-03;1.883496025063942E-04;
2.040000000000000E+09;3.943263695840202E-01;-7.422337010519504E-01;4.652491483869841E-01;-7.073881510742219E-01;1.829952108378840E-03;6.886014500023171E-05;
2.041250000000000E+09;3.503950021834434E-01;-7.637852492804640E-01;4.232365896342445E-01;-7.334822937656179E-01;1.798832785116998E-03;-4.763248350068187E-05;
2.042500000000000E+09;3.052866532707852E-01;-7.827174552492178E-01;3.794923279312604E-01;-7.564033588123709E-01;1.758184514300104E-03;-1.641569048257598E-04;
2.043750000000000E+09;2.590540912326033E-01;-7.990819609696236E-01;3.347654446827589E-01;-7.771682076110865E-01;1.706537829092107E-03;-2.505042074146138E-04;
2.045000000000000E+09;2.123215399251483E-01;-8.129127979740436E-01;2.887008155993278E-01;-7.953230844005365E-01;1.653457806666158E-03;-3.275571435412857E-04;
2.046250000000000E+09;1.646257190636444E-01;-8.240256734936453E-01;2.416342561193687E-01;-8.106910513273609E-01;1.603009796772850E-03;-3.881950521577807E-04;
2.047500000000000E+09;1.162071362229212E-01;-8.323486477180243E-01;1.937646925676765E-01;-8.233879125376198E-01;1.579021061855604E-03;-4.398450551869712E-04;
2.048750000000000E+09;6.784703773712744E-02;-8.374855174491151E-01;1.454149078940889E-01;-8.331508278365608E-01;1.562332185777842E-03;-5.015531257524853E-04;
2.050000000000000E+09;1.876235884231769E-02;-8.400265650247515E-01;9.633028706368596E-02;-8.402264321300763E-01;1.506229431612373E-03;-6.150294286452696E-04;
2.051250000000000E+09;-3.023586107307190E-02;-8.397596143030330E-01;4.688028676356649E-02;-8.438922047022366E-01;1.457835800138382E-03;-6.568007221621278E-04;
2.052500000000000E+09;-7.902647278981589E-02;-8.367026844148461E-01;-2.505643594230531E-03;-8.455088355707362E-01;1.413409385357000E-03;-7.357270195674926E-04;
2.053750000000000E+09;-1.277618295706142E-01;-8.307912653754185E-01;-5.211108655596210E-02;-8.438390137822573E-01;1.389319401658443E-03;-8.059987334619669E-04;
2.055000000000000E+09;-1.756761722363619E-01;-8.219609866620602E-01;-1.013338871323799E-01;-8.392268765110352E-01;1.334656476090979E-03;-8.938889897806428E-04;
2.056250000000000E+09;-2.233276632466806E-01;-8.105304431382311E-01;-1.502008345575252E-01;-8.319563879293286E-01;1.291787282168067E-03;-9.146881185279958E-04;
2.057500000000000E+09;-2.701228196161238E-01;-7.963840888081143E-01;-1.986573745272943E-01;-8.216984138748149E-01;1.241732016533869E-03;-9.884785653587488E-04;
2.058750000000000E+09;-3.159574452561610E-01;-7.793142774953193E-01;-2.463448563598031E-01;-8.085430815570318E-01;1.176247329710575E-03;-1.080622135223477E-03;
2.060000000000000E+09;-3.607166294829163E-01;-7.598961166051753E-01;-2.932765688508229E-01;-7.926908408498065E-01;1.103866319930778E-03;-1.146224176434271E-03;
2.061250000000000E+09;-4.037882307578887E-01;-7.379404573044085E-01;-3.390005700556178E-01;-7.741926532131819E-01;1.036904880526663E-03;-1.216819912505587E-03;
2.062500000000000E+09;-4.458490430659308E-01;-7.135832759790967E-01;-3.835910165099420E-01;-7.535314078403788E-01;9.714182176718066E-04;-1.256065946805893E-03;
2.063750000000000E+09;-4.862272915337422E-01;-6.868938366926216E-01;-4.268110427794585E-01;-7.299289845470168E-01;8.520481203247212E-04;-1.291147713604395E-03;
2.065000000000000E+09;-5.250975147426244E-01;-6.579313101373218E-01;-4.687656247243963E-01;-7.039381590281160E-01;7.613222557665662E-04;-1.325812483572059E-03;
2.066250000000000E+09;-5.620368310332812E-01;-6.268534463593826E-01;-5.089524136364727E-01;-6.755607315565211E-01;6.719293922184909E-04;-1.427532642680683E-03;
2.067500000000000E+09;-5.972759819753973E-01;-5.937508644115641E-01;-5.473487618676190E-01;-6.449459095033041E-01;5.848708850397039E-04;-1.411556452650504E-03;
2.068750000000000E+09;-6.304857139058401E-01;-5.589074992510255E-01;-5.837720066702285E-01;-6.119848085815325E-01;4.318779731504283E-04;-1.451875093854111E-03;
2.070000000000000E+09;-6.614545647698017E-01;-5.218919892682528E-01;-6.184270919232010E-01;-5.773182906674428E-01;3.306520674208071E-04;-1.422677950518022E-03;
2.071250000000000E+09;-6.902649816536497E-01;-4.835029945764826E-01;-6.510244994497776E-01;-5.405123335115152E-01;2.705934114187458E-04;-1.425933293329301E-03;
2.072500000000000E+09;-7.171030320505742E-01;-4.435717312925176E-01;-6.811230456928523E-01;-5.024233571592872E-01;1.746090335178570E-04;-1.397826565892009E-03;
2.073750000000000E+09;-7.411396472600120E-01;-4.020191993529326E-01;-7.091131824587367E-01;-4.621758915637513E-01;1.010822559639744E-04;-1.410498519862027E-03;
2.075000000000000E+09;-7.632251278457727E-01;-3.594003224612329E-01;-7.346811795952066E-01;-4.208316876749846E-01;1.475322745644972E-06;-1.400739638300746E-03;
2.076250000000000E+09;-7.823714705761792E-01;-3.155528626161462E-01;-7.577767788002715E-01;-3.779235399399183E-01;-8.585474028243679E-05;-1.341450059353849E-03;
2.077500000000000E+09;-7.992482036248639E-01;-2.708302961015777E-01;-7.783686931158017E-01;-3.339573475077601E-01;-1.869018437932568E-04;-1.351213627118498E-03;
2.078750000000000E+09;-8.136809321082461E-01;-2.252899033978372E-01;-7.963979751982962E-01;-2.888211980558786E-01;-2.315061734330497E-04;-1.310418830051329E-03;
2.080000000000000E+09;-8.253601418309955E-01;-1.790383535284774E-01;-8.117895084811688E-01;-2.429760580646879E-01;-2.535048404478202E-04;-1.259945065693639E-03;
2.081250000000000E+09;-8.345055258639338E-01;-1.326228066980886E-01;-8.246427457878119E-01;-1.961566950079051E-01;-3.536523640419845E-04;-1.212820687766609E-03;
2.082500000000000E+09;-8.408857865369311E-01;-8.563974143441574E-02;-8.347813128374738E-01;-1.487776136551208E-01;-3.978721983859063E-04;-1.169304756022478E-03;
2.083750000000000E+09;-8.448403154386618E-01;-3.851351784263034E-02;-8.419902681994902E-01;-1.014422634284843E-01;-4.830764533716259E-04;-1.142412000079927E-03;
2.085000000000000E+09;-8.458125480308248E-01;8.741692166902215E-03;-8.466583626691142E-01;-5.345802141707820E-02;-5.546109574585425E-04;-1.089764921741974E-03;
2.086250000000000E+09;-8.444351695257326E-01;5.575522517706490E-02;-8.487839024174609E-01;-5.325617336143219E-03;-6.132146368953045E-04;-1.045207157239808E-03;
2.087500000000000E+09;-8.403511287743423E-01;1.028435867698202E-01;-8.479224019011641E-01;4.266654236765312E-02;-6.597669720954622E-04;-9.612765347946087E-04;
2.088750000000000E+09;-8.337655301414519E-01;1.493832368018288E-01;-8.445594629497153E-01;9.023548352103797E-02;-6.880486902829185E-04;-9.164413477076475E-04;
2.090000000000000E+09;-8.244837616173721E-01;1.953255184901103E-01;-8.386382384159246E-01;1.374030927728380E-01;-7.343861468259285E-04;-8.176343644362631E-04;
2.091250000000000E+09;-8.128235842984206E-01;2.406856250475026E-01;-8.299506498605606E-01;1.840613986251152E-01;-7.470424577096272E-04;-7.863227497503246E-04;
2.092500000000000E+09;-7.986597809999997E-01;2.854011201765691E-01;-8.186982674421319E-01;2.304478842086681E-01;-7.683085172678564E-04;-6.684892962666714E-04;
2.093750000000000E+09;-7.819775498335407E-01;3.290011392287470E-01;-8.049458258885949E-01;2.755485492712098E-01;-7.514930000755497E-04;-6.069494407995459E-04;
2.095000000000000E+09;-7.628881195736980E-01;3.717287306348623E-01;-7.885988022251459E-01;3.201398205627002E-01;-7.647977792682852E-04;-6.124000782198423E-04;
2.096250000000000E+09;-7.416282853746555E-01;4.133937647495218E-01;-7.700658327234323E-01;3.632990191414041E-01;-7.594815697092695E-04;-5.496468592160512E-04;
2.097500000000000E+09;-7.181987653876853E-01;4.533934154457540E-01;-7.491734677115286E-01;4.056439513637299E-01;-7.749373158401129E-04;-5.219933256342524E-04;
2.098750000000000E+09;-6.926032333149037E-01;4.922079363559492E-01;-7.260833402816266E-01;4.465480070809376E-01;-7.860251911934892E-04;-5.027604127179848E-04;
2.100000000000000E+09;-6.647863168804367E-01;5.295679337806630E-01;-7.006562012769478E-01;4.859401469177199E-01;-7.928153424585238E-04;-4.660304787558101E-04;
2.101250000000000E+09;-6.353801760107851E-01;5.652033322777499E-01;-6.734904136407340E-01;5.238189404814800E-01;-8.021352630406188E-04;-4.438085847881417E-04;
2.102500000000000E+09;-6.041137223023518E-01;5.991363611814158E-01;-6.436829933141767E-01;5.603548563116232E-01;-8.526311086843860E-04;-4.523286970673237E-04;
2.103750000000000E+09;-5.711727987918809E-01;6.312335965538982E-01;-6.124274141160564E-01;5.950422495297024E-01;-8.845880967003221E-04;-3.794273995330537E-04;
2.105000000000000E+09;-5.362567095156806E-01;6.614301830307052E-01;-5.795787269061528E-01;6.280619360351365E-01;-9.521774901427349E-04;-3.108278917195813E-04;
2.106250000000000E+09;-5.001176495909526E-01;6.898260364201360E-01;-5.443990258675792E-01;6.587627968814505E-01;-9.497033853254408E-04;-2.327622435284070E-04;
2.107500000000000E+09;-4.625441763068483E-01;7.160517473271715E-01;-5.081390929013709E-01;6.877525959134908E-01;-9.526524290140709E-04;-1.856474689250529E-04;
2.108750000000000E+09;-4.233651066847880E-01;7.403417055096214E-01;-4.703558725068211E-01;7.146884316834237E-01;-1.041082321706670E-03;-1.025527862751253E-04;
2.110000000000000E+09;-3.831433266714334E-01;7.624206641836109E-01;-4.311192029125691E-01;7.393558150452291E-01;-9.777099034058595E-04;-1.134376427477509E-05;
2.111250000000000E+09;-3.418109880616400E-01;7.822915732919297E-01;-3.907658669479120E-01;7.617154489957633E-01;-9.844747451962176E-04;7.095059325955197E-05;
2.112500000000000E+09;-2.995015355511962E-01;7.997139826650824E-01;-3.492923568768780E-01;7.819860761772545E-01;-9.523491901486731E-04;1.515343022382805E-04;
2.113750000000000E+09;-2.563271319795555E-01;8.150228953489583E-01;-3.068926452900970E-01;7.999171848784561E-01;-9.863966797138833E-04;1.995190305353427E-04;
2.115000000000000E+09;-2.126609213465705E-01;8.277284774322284E-01;-2.637208943242010E-01;8.154860978515046E-01;-8.984094556093344E-04;2.832720635251750E-04;
2.116250000000000E+09;-1.683705135899391E-01;8.381962679398222E-01;-2.197126897988380E-01;8.287753819222117E-01;-8.828107998675291E-04;3.525165152134056E-04;
2.117500000000000E+09;-1.235954057238907E-01;8.463150455698872E-01;-1.752476447664239E-01;8.396753155599889E-01;-8.515188427761337E-04;4.315853209747055E-04;
2.118750000000000E+09;-7.843802509339745E-02;8.518806440108532E-01;-1.303322706447171E-01;8.479374119876167E-01;-7.997784260425499E-04;5.202448734542432E-04;
2.120000000000000E+09;-3.328593469956460E-02;8.550947228299078E-01;-8.511991961839542E-02;8.540185820125035E-01;-7.643029416072333E-04;5.512387014574094E-04;
2.121250000000000E+09;1.255558080448503E-02;8.560742631729530E-01;-3.971810917188306E-02;8.575324697503163E-01;-6.304942156638673E-04;7.146668634208558E-04;
2.122500000000000E+09;5.811984590360622E-02;8.544326796934603E-01;5.772391786787368E-03;8.586673655147169E-01;-5.782877374629432E-04;6.815689937839342E-04;
2.123750000000000E+09;1.035675358606371E-01;8.505367233201963E-01;5.138212478795585E-02;8.573657897379997E-01;-4.973627148800519E-04;6.819708460097446E-04;
2.125000000000000E+09;1.486515386878653E-01;8.441431703652206E-01;9.659306668063730E-02;8.537152356426676E-01;-4.116707876856436E-04;7.130499560292975E-04;
2.126250000000000E+09;1.933420906132721E-01;8.352366881865081E-01;1.416635452259346E-01;8.477037258615406E-01;-3.485867757117926E-04;7.353678895953120E-04;
2.127500000000000E+09;2.374530130423730E-01;8.242034485762485E-01;1.861177453635508E-01;8.394091924503194E-01;-2.830629977401474E-04;7.435393522567720E-04;
2.128750000000000E+09;2.807325255012441E-01;8.105613418131404E-01;2.301858371810229E-01;8.285809294528891E-01;-2.123699422763129E-04;7.370564954311602E-04;
2.130000000000000E+09;3.231577237438876E-01;7.947995797673899E-01;2.734686594163435E-01;8.157697040051801E-01;-1.276003168071356E-04;7.515769175172602E-04;
2.131250000000000E+09;3.650856085092272E-01;7.766457936127285E-01;3.161034061452656E-01;8.005629305431929E-01;-6.083281972732529E-05;7.371758071470810E-04;
2.132500000000000E+09;4.055664718705618E-01;7.565749599731580E-01;3.577814580613077E-01;7.828462330958040E-01;4.371376362388285E-06;6.917187403183724E-04;
2.133750000000000E+09;4.448893043728973E-01;7.341963035542443E-01;3.983063481318029E-01;7.632007242990253E-01;8.710654250597782E-05;7.142483193609403E-04;
2.135000000000000E+09;4.831232436129217E-01;7.096834278739326E-01;4.378850835067076E-01;7.413966568003708E-01;1.420783494806954E-04;6.802096656929465E-04;
2.136250000000000E+09;5.197778191254546E-01;6.835333238786464E-01;4.760980838678041E-01;7.175535787096911E-01;1.891690978345653E-04;6.318760792127913E-04;
2.137500000000000E+09;5.552153678395059E-01;6.551467322132439E-01;5.129143357478138E-01;6.917363711264948E-01;2.877644245621451E-04;5.931608803070388E-04;
2.138750000000000E+09;5.889673756032157E-01;6.251168224403139E-01;5.487027813692519E-01;6.640325947161422E-01;3.217837565504336E-04;5.215550450225307E-04;
2.140000000000000E+09;6.208992028084994E-01;5.931652923658417E-01;5.826460997229556E-01;6.345771234262916E-01;3.613948409690169E-04;4.865066078872577E-04;
2.141250000000000E+09;6.515528555481270E-01;5.598073910254087E-01;6.150569787333093E-01;6.032473793586720E-01;4.309609134056003E-04;4.136479362372761E-04;
2.142500000000000E+09;6.802064969580317E-01;5.247767700036459E-01;6.456199861650156E-01;5.703055042567716E-01;4.141334042846273E-04;3.623973141947259E-04;
2.143750000000000E+09;7.069901757604137E-01;4.879650238938065E-01;6.748384745309461E-01;5.359953647763070E-01;4.355864381503205E-04;3.135082925301382E-04;
2.145000000000000E+09;7.319900165948285E-01;4.499924153068909E-01;7.019636180184731E-01;4.999919038046121E-01;4.838007092572230E-04;2.562977902828768E-04;
2.146250000000000E+09;7.547884965198375E-01;4.106206633597185E-01;7.272251460326596E-01;4.625103957418191E-01;4.908178587086100E-04;2.303118248287105E-04;
2.147500000000000E+09;7.755015525263784E-01;3.702499428240454E-01;7.504786863960662E-01;4.239981974122776E-01;4.591785184985695E-04;1.767491269473363E-04;
2.148750000000000E+09;7.938695048930988E-01;3.287493639426247E-01;7.716979233799327E-01;3.841676390876737E-01;4.562534295739138E-04;9.820643348387240E-05;
2.150000000000000E+09;8.101030204665427E-01;2.862893422480156E-01;7.907481709412555E-01;3.431320497294020E-01;5.074608139132797E-04;4.246427325580004E-05;
2.151250000000000E+09;8.241812595465282E-01;2.428230014522720E-01;8.077116541234213E-01;3.012786470889826E-01;5.207307809852874E-04;5.911647656350586E-05;
2.152500000000000E+09;8.358520707355497E-01;1.989600630102605E-01;8.222278583056104E-01;2.585849834168319E-01;5.061875194239827E-04;-1.784867051451951E-05;
2.153750000000000E+09;8.451596413315127E-01;1.544727756302227E-01;8.347108443291176E-01;2.151051801006065E-01;5.434394501804329E-04;-9.948564901189573E-05;
2.155000000000000E+09;8.519784362953347E-01;1.094218192825387E-01;8.446132954669187E-01;1.708434018843663E-01;5.116506669610144E-04;-1.491778365130334E-04;
2.156250000000000E+09;8.564411553214589E-01;6.402350864185231E-02;8.523391261323308E-01;1.263297775553856E-01;4.920524075778135E-04;-1.941518878646699E-04;
