# Version 1.00
#
freq[Hz];re:Trc1_S11;im:Trc1_S11;re:Trc2_S22;im:Trc2_S22;re:Trc3_S21;im:Trc3_S21;
2.000000000000000E+09;6.684034842193103E-01;5.079234783316490E-01;5.563342391740125E-01;6.428368231007356E-01;-1.947572078591056E-04;1.045537731782692E-03;
2.001250000000000E+09;6.965442594682382E-01;4.685598121731504E-01;5.918255999092197E-01;6.104714451158167E-01;-1.619951044242477E-04;1.022604971615717E-03;
2.002500000000000E+09;7.223191290705746E-01;4.275977772938480E-01;6.252977555859305E-01;5.762958752830258E-01;-1.224761906554671E-04;1.024622313648820E-03;
2.003750000000000E+09;7.459655187597823E-01;3.851320115152759E-01;6.566592586087452E-01;5.401470125401705E-01;-6.857326143054393E-05;1.062045029120029E-03;
2.005000000000000E+09;7.667448233393472E-01;3.416655962551693E-01;6.860214291985001E-01;5.023173452575976E-01;-1.441348581332866E-05;1.017030826394234E-03;
2.006250000000000E+09;7.851375024006485E-01;2.968158410006064E-01;7.134792830549070E-01;4.627505920824384E-01;1.116522617904137E-05;1.047479431438921E-03;
2.007500000000000E+09;8.009753751156388E-01;2.509900103656845E-01;7.383679416061514E-01;4.214549881187072E-01;8.014131694202752E-05;1.073882268708571E-03;
2.008750000000000E+09;8.140932214001365E-01;2.041325422300735E-01;7.609296335996217E-01;3.791863236286073E-01;1.557373302866055E-04;1.044081081249533E-03;
2.010000000000000E+09;8.245938694958956E-01;1.566588576085114E-01;7.813760647449373E-01;3.355761365132402E-01;2.012492177993383E-04;1.062067299975462E-03;
2.011250000000000E+09;8.322400735420832E-01;1.087660427545206E-01;7.988903331630318E-01;2.903366904453376E-01;2.205365832694624E-04;1.058005758370346E-03;
2.012500000000000E+09;8.370296347519118E-01;6.047069801034251E-02;8.139270174117019E-01;2.445594410653764E-01;3.187253225046841E-04;1.055256374586748E-03;
2.013750000000000E+09;8.390173246770941E-01;1.180791667709662E-02;8.263526238042254E-01;1.978187935090807E-01;3.402583954699118E-04;1.026699228313287E-03;
2.015000000000000E+09;8.383289032363392E-01;-3.705346825377938E-02;8.363562336233109E-01;1.502721085245184E-01;3.788217422527835E-04;1.004006006937202E-03;
2.016250000000000E+09;8.347317480225814E-01;-8.550025333733013E-02;8.434919274427871E-01;1.022234334266068E-01;4.500214443091316E-04;1.015171999525750E-03;
2.017500000000000E+09;8.282911167871071E-01;-1.338418187136547E-01;8.476967148724799E-01;5.370086874745381E-02;5.331510627392273E-04;9.878321796499955E-04;
2.018750000000000E+09;8.190920517690846E-01;-1.816508496757361E-01;8.493921460138573E-01;4.963723084987126E-03;5.484081833120717E-04;9.910268627583627E-04;
2.020000000000000E+09;8.069930605902238E-01;-2.288216174237751E-01;8.479888935175512E-01;-4.357769901038994E-02;6.163989211412861E-04;9.445577842600943E-04;
2.021250000000000E+09;7.923935100186960E-01;-2.752337448032989E-01;8.439129640023089E-01;-9.200741569913531E-02;6.674312600675161E-04;9.402738117018601E-04;
2.022500000000000E+09;7.750779591254063E-01;-3.208076619253483E-01;8.369576219669121E-01;-1.403893248666423E-01;7.254050392601862E-04;9.026586886885031E-04;
2.023750000000000E+09;7.550308912472131E-01;-3.652509203828951E-01;8.275697112834931E-01;-1.881626048479850E-01;7.666251428558145E-04;8.956033933514600E-04;
2.025000000000000E+09;7.324319356498480E-01;-4.086044123720258E-01;8.154173795159854E-01;-2.354853178108776E-01;8.248686416228177E-04;8.333729084732624E-04;
2.026250000000000E+09;7.075103603978236E-01;-4.503481144420958E-01;8.002424501929370E-01;-2.818964004651312E-01;9.107844319446691E-04;8.229102695473062E-04;
2.027500000000000E+09;6.800112090808370E-01;-4.906396106998913E-01;7.823788002852883E-01;-3.274739333977275E-01;9.655804315357078E-04;7.953713818429389E-04;
2.028750000000000E+09;6.504349930782046E-01;-5.294424229477399E-01;7.620734270402573E-01;-3.720747607148848E-01;1.010762368555643E-03;7.335450613855643E-04;
2.030000000000000E+09;6.182701454532297E-01;-5.662528233298103E-01;7.390605050162531E-01;-4.156158070521895E-01;1.050412988684075E-03;6.638856344726619E-04;
2.031250000000000E+09;5.840280235832398E-01;-6.013405314137985E-01;7.139146323246564E-01;-4.574198321589333E-01;1.057737178476347E-03;5.826813662505279E-04;
2.032500000000000E+09;5.480265455040149E-01;-6.344564515872090E-01;6.858289344518582E-01;-4.978473199258624E-01;1.090888327524831E-03;5.148155200526684E-04;
2.033750000000000E+09;5.103603041554255E-01;-6.652858566999859E-01;6.558043342880155E-01;-5.367698496237447E-01;1.105706932142298E-03;5.107194291173422E-04;
2.035000000000000E+09;4.702897598638639E-01;-6.938678456546707E-01;6.231981818723644E-01;-5.738420197141667E-01;1.167662268276805E-03;4.315332729803902E-04;
2.036250000000000E+09;4.291382485688685E-01;-7.199567744705817E-01;5.886661979731781E-01;-6.088980664764189E-01;1.192089740091563E-03;3.878473601251304E-04;
2.037500000000000E+09;3.862844218406433E-01;-7.439624696733326E-01;5.523028500845216E-01;-6.419963201074979E-01;1.214381493232927E-03;3.184263552916000E-04;
2.038750000000000E+09;3.424153497629615E-01;-7.652490102547309E-01;5.135715286459724E-01;-6.730749843372938E-01;1.230299995238558E-03;2.535796524694708E-04;
2.040000000000000E+09;2.969584382161753E-01;-7.839189040720397E-01;4.732333429359351E-01;-7.016931930920169E-01;1.272927922237200E-03;2.068534878617614E-04;
2.041250000000000E+09;2.508711157301960E-01;-7.997939928101463E-01;4.317189455824580E-01;-7.278581387842065E-01;1.297559320422930E-03;1.341493214072963E-04;
2.042500000000000E+09;2.041215042477346E-01;-8.130392936558967E-01;3.883440128452564E-01;-7.516219986669840E-01;1.285932998403160E-03;5.673071110705701E-05;
2.043750000000000E+09;1.567257006429046E-01;-8.236360222920915E-01;3.436789248090592E-01;-7.729115032013458E-01;1.318257725658442E-03;-2.605273059085440E-05;
2.045000000000000E+09;1.086482941064593E-01;-8.312861188364594E-01;2.979650992498304E-01;-7.917292638618250E-01;1.267600447031957E-03;-6.256381993582997E-05;
2.046250000000000E+09;6.040047878747631E-02;-8.362741723769871E-01;2.510258274271264E-01;-8.074025040317272E-01;1.331365037485743E-03;-1.638785540736488E-04;
2.047500000000000E+09;1.169224657743193E-02;-8.385078794213511E-01;2.034842250996056E-01;-8.208078682264383E-01;1.302575578895427E-03;-2.294599935527049E-04;
2.048750000000000E+09;-3.683663154053647E-02;-8.378684616691997E-01;1.551058931148247E-01;-8.310603701903817E-01;1.300383029380864E-03;-3.235527500747647E-04;
2.050000000000000E+09;-8.526536240103968E-02;-8.343660250596771E-01;1.060590418087624E-01;-8.386959765380070E-01;1.278471638525096E-03;-3.974882291893206E-04;
2.051250000000000E+09;-1.334884639695078E-01;-8.283438307049583E-01;5.668158197937592E-02;-8.434652393543554E-01;1.277707390209645E-03;-4.465401368221744E-04;
2.052500000000000E+09;-1.813685316166136E-01;-8.194805937667728E-01;7.282223270328501E-03;-8.452706729230092E-01;1.207234763004207E-03;-5.244832958726640E-04;
2.053750000000000E+09;-2.283966844896123E-01;-8.074775848226531E-01;-4.214451351853010E-02;-8.441097404980996E-01;1.255996806739521E-03;-6.022868136770157E-04;
2.055000000000000E+09;-2.747267964297692E-01;-7.933055078561232E-01;-9.152992190149835E-02;-8.402835170588413E-01;1.199376823152284E-03;-6.360226496579044E-04;
2.056250000000000E+09;-3.202241566281119E-01;-7.761958112419389E-01;-1.404945608702557E-01;-8.333151905957581E-01;1.189920689154233E-03;-6.906749800639749E-04;
2.057500000000000E+09;-3.645103918965640E-01;-7.563138887365476E-01;-1.889078262160098E-01;-8.237009613562314E-01;1.140082717843284E-03;-7.759510837766197E-04;
2.058750000000000E+09;-4.077069528498729E-01;-7.345021103862907E-01;-2.370441393394798E-01;-8.110383722773140E-01;1.148182391671473E-03;-8.300443532080486E-04;
2.060000000000000E+09;-4.493929119976770E-01;-7.100004722232602E-01;-2.840904442996796E-01;-7.956779150900145E-01;1.089336095269508E-03;-9.098252115427196E-04;
2.061250000000000E+09;-4.893790536655077E-01;-6.835153195887910E-01;-3.300018154583483E-01;-7.780135108132663E-01;1.087091202330520E-03;-9.645695402029554E-04;
2.062500000000000E+09;-5.275365230278448E-01;-6.546235260724244E-01;-3.748317955660561E-01;-7.573365581309328E-01;1.016424673017912E-03;-1.073696546444965E-03;
2.063750000000000E+09;-5.641914823636835E-01;-6.238812846982335E-01;-4.181693110182987E-01;-7.344604639576854E-01;9.396280743693362E-04;-1.133380671973738E-03;
2.065000000000000E+09;-5.987958865147704E-01;-5.907294661274148E-01;-4.604891260527581E-01;-7.089074165311193E-01;9.086901283911322E-04;-1.195138883027111E-03;
2.066250000000000E+09;-6.316431991324308E-01;-5.562000956432913E-01;-5.012244232995297E-01;-6.808293603544724E-01;8.079954297260913E-04;-1.268022718153361E-03;
2.067500000000000E+09;-6.622072328609155E-01;-5.195201422432738E-01;-5.399675860046793E-01;-6.506873245215516E-01;7.352514914418163E-04;-1.325168001924483E-03;
2.068750000000000E+09;-6.910139908136042E-01;-4.813210507780252E-01;-5.767614351867725E-01;-6.184197483044063E-01;6.570669094753492E-04;-1.330613795428759E-03;
2.070000000000000E+09;-7.172457110578258E-01;-4.418263989680974E-01;-6.117997621391693E-01;-5.839113779629317E-01;5.676869317235244E-04;-1.377902166984255E-03;
2.071250000000000E+09;-7.413594312093021E-01;-4.009305064455659E-01;-6.446702225865248E-01;-5.475377066108214E-01;4.942468763753278E-04;-1.478135008155148E-03;
2.072500000000000E+09;-7.629991362518574E-01;-3.585017313998615E-01;-6.753061570182988E-01;-5.092617361778976E-01;4.006360673444047E-04;-1.472353303047776E-03;
2.073750000000000E+09;-7.824014616950837E-01;-3.151936539269457E-01;-7.039921143982913E-01;-4.694722234674215E-01;3.391913722737062E-04;-1.481612026009953E-03;
2.075000000000000E+09;-7.992380413718125E-01;-2.707096782488032E-01;-7.298845735747355E-01;-4.281727528259308E-01;2.590665195875644E-04;-1.480790896931206E-03;
2.076250000000000E+09;-8.135896643518292E-01;-2.257497710933455E-01;-7.534673872018361E-01;-3.856059083042164E-01;1.730428729208022E-04;-1.489003665991902E-03;
2.077500000000000E+09;-8.250798214748024E-01;-1.798490057367343E-01;-7.741884922769057E-01;-3.418610111277663E-01;7.587779927551365E-05;-1.506819102611573E-03;
2.078750000000000E+09;-8.343536649460219E-01;-1.335192288437011E-01;-7.928183503748043E-01;-2.970336937476172E-01;-1.280057236643318E-05;-1.541537324440893E-03;
2.080000000000000E+09;-8.406531514858262E-01;-8.690106220454238E-02;-8.088652042050885E-01;-2.512084918363282E-01;-6.891159684915569E-05;-1.493702656270634E-03;
2.081250000000000E+09;-8.445671991526861E-01;-4.042873471993080E-02;-8.222235761229968E-01;-2.046642046651043E-01;-1.602011370917807E-04;-1.504064238942822E-03;
2.082500000000000E+09;-8.459865541605698E-01;6.377168441708170E-03;-8.327765429049664E-01;-1.575825886340511E-01;-2.325921138269848E-04;-1.473727641304129E-03;
2.083750000000000E+09;-8.447863722530291E-01;5.314789417904637E-02;-8.404893228829318E-01;-1.099507190788278E-01;-3.489732700076626E-04;-1.516755188364120E-03;
2.085000000000000E+09;-8.408891127266976E-01;9.948347906686929E-02;-8.458706252856254E-01;-6.199384065765295E-02;-4.649364357049684E-04;-1.453395771446135E-03;
2.086250000000000E+09;-8.345358753613156E-01;1.453927901981214E-01;-8.481128748549950E-01;-1.403020129001305E-02;-5.064736190982758E-04;-1.408843290175042E-03;
2.087500000000000E+09;-8.256079706090463E-01;1.910780514575796E-01;-8.480972427271561E-01;3.402456418826513E-02;-5.797275125566079E-04;-1.336109626829382E-03;
2.088750000000000E+09;-8.143807414626610E-01;2.360242734926518E-01;-8.448060619848862E-01;8.168921931031489E-02;-6.571855083317143E-04;-1.292702473432192E-03;
2.090000000000000E+09;-8.005958453695909E-01;2.804208492814994E-01;-8.392416719048742E-01;1.291552826884680E-01;-7.012329844371263E-04;-1.236111731670849E-03;
2.091250000000000E+09;-7.845659087418060E-01;3.237516233072615E-01;-8.311317483256372E-01;1.762173813581910E-01;-7.130603505774890E-04;-1.181325277073722E-03;
2.092500000000000E+09;-7.661521995849255E-01;3.661274010215479E-01;-8.202614038756203E-01;2.222980284355455E-01;-7.304508035509375E-04;-1.146938864306209E-03;
2.093750000000000E+09;-7.454370059249338E-01;4.073109221524956E-01;-8.070650379699477E-01;2.676584061244960E-01;-7.575461449412148E-04;-1.092980223149005E-03;
2.095000000000000E+09;-7.226188760288937E-01;4.473262111805192E-01;-7.911333321770778E-01;3.122533298765568E-01;-7.678403893458597E-04;-1.103437740771410E-03;
2.096250000000000E+09;-6.976646198169488E-01;4.860149436303657E-01;-7.728511095079349E-01;3.557966681143614E-01;-7.864268998191127E-04;-1.087635683253946E-03;
2.097500000000000E+09;-6.704955368379210E-01;5.233202889580120E-01;-7.523401005271757E-01;3.981508290114485E-01;-8.403705202236086E-04;-1.103222755745463E-03;
2.098750000000000E+09;-6.414463438236123E-01;5.589999542384928E-01;-7.297694709699982E-01;4.392556024412744E-01;-8.888428839101942E-04;-1.081021749304592E-03;
2.100000000000000E+09;-6.107980461307234E-01;5.928131259738560E-01;-7.046121623770308E-01;4.788877144241315E-01;-9.136120517174677E-04;-1.092698432490874E-03;
2.101250000000000E+09;-5.784695970882910E-01;6.250863368604268E-01;-6.775672944785507E-01;5.173037394995287E-01;-1.013340273425581E-03;-1.073371098607653E-03;
2.102500000000000E+09;-5.445301732435206E-01;6.553742841082045E-01;-6.483813857255999E-01;5.540379950015613E-01;-1.084529466666116E-03;-1.070375294749816E-03;
2.103750000000000E+09;-5.089944527543813E-01;6.837453487178894E-01;-6.173728897577112E-01;5.888395008297151E-01;-1.133921964403596E-03;-1.035616999597897E-03;
2.105000000000000E+09;-4.721071362515960E-01;7.104718921585397E-01;-5.846017665991483E-01;6.220343832182114E-01;-1.244147323251771E-03;-1.046619421381029E-03;
2.106250000000000E+09;-4.338049578411599E-01;7.347377066334636E-01;-5.501948455214375E-01;6.532452724401943E-01;-1.332095944518828E-03;-9.700224796539805E-04;
2.107500000000000E+09;-3.942795379334268E-01;7.571932188209418E-01;-5.138342130929474E-01;6.824030624544210E-01;-1.394032710689106E-03;-9.477133373585884E-04;
2.108750000000000E+09;-3.537237930971474E-01;7.774650702430916E-01;-4.763432545645783E-01;7.097631150616573E-01;-1.492524090838237E-03;-8.734719796191157E-04;
2.110000000000000E+09;-3.122045239099832E-01;7.954807057648893E-01;-4.374847078351304E-01;7.348354272373223E-01;-1.587427111627448E-03;-8.091276871549692E-04;
2.111250000000000E+09;-2.699222769951379E-01;8.111632166945182E-01;-3.971607851106392E-01;7.576856973491467E-01;-1.690989681980949E-03;-7.087807426330263E-04;
2.112500000000000E+09;-2.267959292529527E-01;8.248225917853573E-01;-3.559496487059183E-01;7.785369157619060E-01;-1.736633130916816E-03;-5.920736146563883E-04;
2.113750000000000E+09;-1.830127710991175E-01;8.359756768875807E-01;-3.136298822866422E-01;7.967692487970335E-01;-1.810719102104404E-03;-5.114313764291255E-04;
2.115000000000000E+09;-1.388908091665582E-01;8.447513605841336E-01;-2.705277235699468E-01;8.126731045822710E-01;-1.862526243751714E-03;-3.723988944568601E-04;
2.116250000000000E+09;-9.439289796818767E-02;8.511413569961072E-01;-2.267542297435905E-01;8.263751562537575E-01;-1.887945888776303E-03;-2.711278606674203E-04;
2.117500000000000E+09;-4.949165054229349E-02;8.553858343518150E-01;-1.824387210963180E-01;8.376564616704193E-01;-1.905231999106285E-03;-1.267922118638885E-04;
2.118750000000000E+09;-4.537257624111927E-03;8.570150038233766E-01;-1.373959969668999E-01;8.464001207178762E-01;-1.941448140309175E-03;-7.368024336689652E-06;
2.120000000000000E+09;4.037469437291211E-02;8.563980247276410E-01;-9.227213518266676E-02;8.527569784563532E-01;-1.848592068823746E-03;1.129368967369641E-04;
2.121250000000000E+09;8.547677200549920E-02;8.533246464933759E-01;-4.674621149755329E-02;8.568654263601344E-01;-1.938720747327786E-03;2.364571597058347E-04;
2.122500000000000E+09;1.301954207528400E-01;8.480848450488587E-01;-1.305565719528672E-03;8.583328065538904E-01;-1.949482657442973E-03;3.580791115796360E-04;
2.123750000000000E+09;1.746204110527849E-01;8.402690998572420E-01;4.422913086992175E-02;8.573463944813570E-01;-1.937869150229782E-03;5.080063643939687E-04;
2.125000000000000E+09;2.185613457792905E-01;8.303108459593803E-01;8.955821495777443E-02;8.540923325009517E-01;-1.907197746183063E-03;6.299931066997838E-04;
2.126250000000000E+09;2.617771273895934E-01;8.179276804868211E-01;1.346760048783666E-01;8.484153485139079E-01;-1.835185891700413E-03;7.434541081717980E-04;
2.127500000000000E+09;3.042606944346012E-01;8.032669121963638E-01;1.791970317659304E-01;8.405592460471705E-01;-1.755057686572895E-03;8.805687372947070E-04;
2.128750000000000E+09;3.458359509726234E-01;7.865634920630913E-01;2.233111612997312E-01;8.301590686127694E-01;-1.712568440267741E-03;9.831091640954423E-04;
2.130000000000000E+09;3.865741705932405E-01;7.676239806805216E-01;2.669110683266178E-01;8.175363451794045E-01;-1.636481377848251E-03;1.032969319035876E-03;
2.131250000000000E+09;4.263886401060598E-01;7.464296358717644E-01;3.095135498838233E-01;8.026965498437820E-01;-1.606594201486166E-03;1.075559749377357E-03;
2.132500000000000E+09;4.648303387897728E-01;7.233809460371773E-01;3.514062352261358E-01;7.853303485293446E-01;-1.546295739641157E-03;1.210218958922479E-03;
2.133750000000000E+09;5.017590012639886E-01;6.983312966470903E-01;3.922721375371416E-01;7.659156098784978E-01;-1.480213988908748E-03;1.289331463193713E-03;
2.135000000000000E+09;5.376032386043507E-01;6.713528338416022E-01;4.321101620573818E-01;7.445967497780427E-01;-1.408367533871189E-03;1.369789010417657E-03;
2.136250000000000E+09;5.718461074120074E-01;6.426823481942071E-01;4.704740422854440E-01;7.209777667738417E-01;-1.359198955473781E-03;1.426926595855358E-03;
2.137500000000000E+09;6.046387281838602E-01;6.120566662976852E-01;5.077027697032628E-01;6.954772510696472E-01;-1.274116335262035E-03;1.537745318853983E-03;
2.138750000000000E+09;6.358067617558776E-01;5.799660586683195E-01;5.435269542808923E-01;6.680096702398906E-01;-1.175823193512956E-03;1.576844643180243E-03;
2.140000000000000E+09;6.649757854074261E-01;5.459537883036809E-01;5.776651355127561E-01;6.384062847247237E-01;-1.090753157163264E-03;1.649063512692206E-03;
2.141250000000000E+09;6.928347696599999E-01;5.103921524913172E-01;6.104070441079441E-01;6.077738747638546E-01;-1.030208841341549E-03;1.745145926499840E-03;
2.142500000000000E+09;7.185409676809899E-01;4.738168021582753E-01;6.416454953095143E-01;5.749593537453542E-01;-9.434766274607349E-04;1.796807819166370E-03;
2.143750000000000E+09;7.422512819402978E-01;4.358632458133914E-01;6.708229222061349E-01;5.408458482400730E-01;-8.476286417189062E-04;1.862854972200653E-03;
2.145000000000000E+09;7.640232800985780E-01;3.964600342540007E-01;6.983465146102156E-01;5.048336192752094E-01;-7.237836092264317E-04;1.889675094619645E-03;
2.146250000000000E+09;7.839328286623588E-01;3.558108611050887E-01;7.239268740647623E-01;4.676300384362973E-01;-6.172079978057317E-04;1.960045492304197E-03;
2.147500000000000E+09;8.013381593268695E-01;3.143848252264689E-01;7.473376025025179E-01;4.290158791962982E-01;-5.159874704882476E-04;1.989017739396858E-03;
2.148750000000000E+09;8.166337812861832E-01;2.721119907281447E-01;7.690012094750992E-01;3.893135941564552E-01;-4.148739080142794E-04;2.029236794734351E-03;
2.150000000000000E+09;8.297619850537458E-01;2.292022842683041E-01;7.882499673338175E-01;3.485471384730897E-01;-3.062709065998662E-04;2.072012776991022E-03;
2.151250000000000E+09;8.403530262940774E-01;1.853663862006591E-01;8.055033705764059E-01;3.066508112540449E-01;-1.463666646611718E-04;2.079410137316222E-03;
2.152500000000000E+09;8.489522209542464E-01;1.411215154903399E-01;8.202187790546939E-01;2.639834359178622E-01;3.043362554618282E-06;2.115331404412355E-03;
2.153750000000000E+09;8.550402187113253E-01;9.636728861228985E-02;8.329323305812897E-01;2.204717779996330E-01;7.464581766595238E-05;2.078963793074314E-03;
2.155000000000000E+09;8.586810289821785E-01;5.151498424739372E-02;8.432454361352981E-01;1.763557931056320E-01;2.053329021044421E-04;2.034448934605964E-03;
2.156250000000000E+09;8.601518093471980E-01;6.561994850748221E-03;8.514047109533702E-01;1.318440997369303E-01;3.459055966600615E-04;2.023719708314260E-03;
