# Version 1.00
#
freq[Hz];re:Trc1_S11;im:Trc1_S11;re:Trc2_S22;im:Trc2_S22;re:Trc3_S21;im:Trc3_S21;
2.000000000000000E+09;6.231904697622379E-01;5.682232473665461E-01;5.287087513530880E-01;6.638229951777386E-01;-7.758811441778514E-04;2.249288920810498E-03;
2.001250000000000E+09;6.547809742634695E-01;5.314858319877250E-01;5.653697476948210E-01;6.330341977131948E-01;-6.356759856855851E-04;2.261625762479635E-03;
2.002500000000000E+09;6.840827820451639E-01;4.930501720430235E-01;6.000278212125819E-01;6.003521124369444E-01;-4.973627924469100E-04;2.307846835639319E-03;
2.003750000000000E+09;7.111471702731248E-01;4.531279142041126E-01;6.330235444897854E-01;5.657473804243008E-01;-3.675996250571001E-04;2.319224605448847E-03;
2.005000000000000E+09;7.359405193924252E-01;4.116638856243082E-01;6.635323168270397E-01;5.290627394724319E-01;-2.263893745812108E-04;2.302358799438598E-03;
2.006250000000000E+09;7.582730724874243E-01;3.687253907727107E-01;6.923287159051427E-01;4.907688839076598E-01;-8.908697466742454E-05;2.290200718516292E-03;
2.007500000000000E+09;7.782592744544462E-01;3.243935150007401E-01;7.188425740521608E-01;4.509314892212559E-01;5.738710625687689E-05;2.268027740779684E-03;
2.008750000000000E+09;7.955309471495838E-01;2.790838113476515E-01;7.432942440791162E-01;4.096123988907022E-01;1.715398203269559E-04;2.252378134921953E-03;
2.010000000000000E+09;8.102262918061937E-01;2.331997344181746E-01;7.651380520558551E-01;3.669480064321456E-01;2.940267745986728E-04;2.238968091629916E-03;
2.011250000000000E+09;8.222286975309631E-01;1.859487562758759E-01;7.845273156301003E-01;3.227693580801032E-01;4.381073189794743E-04;2.190254784077247E-03;
2.012500000000000E+09;8.313623711864589E-01;1.382240383322426E-01;8.017320716632785E-01;2.776684941815892E-01;5.503617791110310E-04;2.152830177537914E-03;
2.013750000000000E+09;8.379213266308043E-01;9.008511422539210E-02;8.159214548315731E-01;2.318440949996908E-01;6.327182826232471E-04;2.115987271589265E-03;
2.015000000000000E+09;8.416850009961776E-01;4.186602648448567E-02;8.277784872144863E-01;1.850504875322063E-01;7.446713651508417E-04;2.071869753863663E-03;
2.016250000000000E+09;8.425648132142176E-01;-7.013693598080504E-03;8.369154247001016E-01;1.375033807065833E-01;8.753618243357652E-04;2.017101490346221E-03;
2.017500000000000E+09;8.406156764127679E-01;-5.577694908010952E-02;8.431167219548211E-01;8.938834351648596E-02;9.918348608132050E-04;1.954808539456760E-03;
2.018750000000000E+09;8.358953484589805E-01;-1.042555455845613E-01;8.466291731542770E-01;4.103597121386800E-02;1.116719605150396E-03;1.871673919616845E-03;
2.020000000000000E+09;8.284026698485707E-01;-1.525167114036312E-01;8.476702790508542E-01;-7.397831776671144E-03;1.226353690796241E-03;1.777079019698037E-03;
2.021250000000000E+09;8.180560259135602E-01;-2.002520112184853E-01;8.457083565110676E-01;-5.593679826724137E-02;1.306707438780883E-03;1.695627940880703E-03;
2.022500000000000E+09;8.050932253602436E-01;-2.470589501449973E-01;8.409104075167950E-01;-1.043197091524173E-01;1.389982896508831E-03;1.609796359003602E-03;
2.023750000000000E+09;7.893952543394384E-01;-2.932827857619499E-01;8.335451026557279E-01;-1.523897954026913E-01;1.466541151030349E-03;1.497036331739954E-03;
2.025000000000000E+09;7.707695728779625E-01;-3.385765379736751E-01;8.232555511951476E-01;-1.997482818815686E-01;1.529516549467635E-03;1.443138362545606E-03;
2.026250000000000E+09;7.496901860395675E-01;-3.827844801378109E-01;8.103864714976440E-01;-2.470392486769698E-01;1.605596616710264E-03;1.295547354468451E-03;
2.027500000000000E+09;7.262145038460541E-01;-4.257448347997460E-01;7.946981204095684E-01;-2.929780789349034E-01;1.674250142055183E-03;1.176707194837927E-03;
2.028750000000000E+09;7.001080011849898E-01;-4.669611941513734E-01;7.760792498425096E-01;-3.383722204349158E-01;1.717356397252966E-03;1.080009112874685E-03;
2.030000000000000E+09;6.714699141709241E-01;-5.067091146137764E-01;7.551871447392167E-01;-3.823716168962896E-01;1.761830838031184E-03;9.611466235136340E-04;
2.031250000000000E+09;6.408049773534866E-01;-5.449189237734959E-01;7.317076652311491E-01;-4.256035541346664E-01;1.805363754569927E-03;8.775755311502318E-04;
2.032500000000000E+09;6.079236214334961E-01;-5.813754117756315E-01;7.056740987865793E-01;-4.670813948468639E-01;1.815593124739458E-03;7.741132683407981E-04;
2.033750000000000E+09;5.729231341486649E-01;-6.157634295449036E-01;6.773369385453427E-01;-5.068996927237663E-01;1.876240901329087E-03;6.569877121004840E-04;
2.035000000000000E+09;5.358143676424544E-01;-6.479790693391492E-01;6.463739185202106E-01;-5.454069519164769E-01;1.853217973522322E-03;5.270899413945258E-04;
2.036250000000000E+09;4.971685578539219E-01;-6.781935532466860E-01;6.134711786422179E-01;-5.817362302470809E-01;1.897006820044222E-03;4.054340660866550E-04;
2.037500000000000E+09;4.564060322801675E-01;-7.059319817672438E-01;5.784163645658075E-01;-6.164282551869291E-01;1.895149019722146E-03;3.143974251616402E-04;
2.038750000000000E+09;4.143238426624527E-01;-7.313890434107699E-01;5.414628652435065E-01;-6.488588217929634E-01;1.905381572305187E-03;1.695063856692660E-04;
2.040000000000000E+09;3.708027648817612E-01;-7.544749592641415E-01;5.025402354563556E-01;-6.792764148637631E-01;1.890925456927684E-03;6.648518426636536E-05;
2.041250000000000E+09;3.262106173077366E-01;-7.745739784632882E-01;4.622345436688902E-01;-7.072957677033018E-01;1.857964183736227E-03;-6.491029055231250E-05;
2.042500000000000E+09;2.805584222751146E-01;-7.920171260889421E-01;4.198674947361934E-01;-7.331214177777123E-01;1.788124097459522E-03;-1.776917263996226E-04;
2.043750000000000E+09;2.344008797339637E-01;-8.068545870699882E-01;3.763584101858312E-01;-7.559474119588871E-01;1.771727766858606E-03;-2.759852548618518E-04;
2.045000000000000E+09;1.868256741594363E-01;-8.191238196980469E-01;3.313757678266133E-01;-7.766013950598647E-01;1.722001493320225E-03;-3.482236785071285E-04;
2.046250000000000E+09;1.387130332745179E-01;-8.286079665135119E-01;2.853027785497071E-01;-7.945781306603423E-01;1.664779928198330E-03;-4.864528589024445E-04;
2.047500000000000E+09;9.035723505724733E-02;-8.353188479027156E-01;2.382544039813930E-01;-8.098028884074970E-01;1.625507126769568E-03;-5.343130658439114E-04;
2.048750000000000E+09;4.173298713103835E-02;-8.393151753440410E-01;1.904951466803630E-01;-8.221081990474416E-01;1.607045088726236E-03;-6.164973673243645E-04;
2.050000000000000E+09;-7.079431685350181E-03;-8.403724400055937E-01;1.418504831074636E-01;-8.317584285286844E-01;1.539626483652507E-03;-6.972298234229828E-04;
2.051250000000000E+09;-5.607722947530429E-02;-8.383404533107937E-01;9.300709720659164E-02;-8.383929769693651E-01;1.474989290378374E-03;-7.575507334896612E-04;
2.052500000000000E+09;-1.046942866497734E-01;-8.337416778040697E-01;4.366974514180500E-02;-8.424138721955823E-01;1.408956146428481E-03;-8.320411072537507E-04;
2.053750000000000E+09;-1.530144285409123E-01;-8.266161409004734E-01;-5.851055940994464E-03;-8.433721319123459E-01;1.357698251214972E-03;-9.056923164113013E-04;
2.055000000000000E+09;-2.005944384853101E-01;-8.164025084994454E-01;-5.532309395374323E-02;-8.415407332549459E-01;1.297154648896011E-03;-9.669650632785372E-04;
2.056250000000000E+09;-2.477387760791471E-01;-8.035312517344012E-01;-1.045087663971136E-01;-8.366577394345117E-01;1.256063390739509E-03;-1.079938564950723E-03;
2.057500000000000E+09;-2.939359693078819E-01;-7.877139271944479E-01;-1.534206373310077E-01;-8.289691380379001E-01;1.148006773963174E-03;-1.112907651856606E-03;
2.058750000000000E+09;-3.393056140632224E-01;-7.696380038059950E-01;-2.013805384664643E-01;-8.184313008014084E-01;1.080429558268379E-03;-1.163110588092405E-03;
2.060000000000000E+09;-3.833439795767280E-01;-7.488213276304276E-01;-2.492585529159211E-01;-8.053457198479566E-01;1.001809432400455E-03;-1.238510298628239E-03;
2.061250000000000E+09;-4.259477598490649E-01;-7.255150661812029E-01;-2.955608158621730E-01;-7.894243035720855E-01;9.286161784045430E-04;-1.254433856143889E-03;
2.062500000000000E+09;-4.669623550817840E-01;-7.002042402651384E-01;-3.412856325075816E-01;-7.707463098417721E-01;8.457935664059686E-04;-1.305971736693786E-03;
2.063750000000000E+09;-5.064622822204872E-01;-6.724337502448151E-01;-3.855341897321115E-01;-7.493273603215479E-01;7.214280838965732E-04;-1.344538249168149E-03;
2.065000000000000E+09;-5.444121256584330E-01;-6.424338426855842E-01;-4.287493172277176E-01;-7.257722278072948E-01;6.149690921562404E-04;-1.332358557084628E-03;
2.066250000000000E+09;-5.804921943561973E-01;-6.104189206155136E-01;-4.702768257444633E-01;-6.995851990211172E-01;5.299669369417655E-04;-1.383663713433186E-03;
2.067500000000000E+09;-6.144416444778619E-01;-5.762348977908294E-01;-5.102649408454334E-01;-6.711390873722524E-01;4.194208866076274E-04;-1.381904864716314E-03;
2.068750000000000E+09;-6.465461050160709E-01;-5.403500518306893E-01;-5.484619463673905E-01;-6.404381677999607E-01;3.249272042062323E-04;-1.358556199960145E-03;
2.070000000000000E+09;-6.763822789565702E-01;-5.029617423124875E-01;-5.848806901807612E-01;-6.075977135096757E-01;2.382311177101944E-04;-1.320960937535679E-03;
2.071250000000000E+09;-7.042483755434784E-01;-4.635671680772075E-01;-6.192116668587333E-01;-5.726079100230527E-01;1.661010187749239E-04;-1.285121025245228E-03;
2.072500000000000E+09;-7.294928222412511E-01;-4.229555922655548E-01;-6.514800296197021E-01;-5.358700041470403E-01;1.257116124100229E-04;-1.271331364987595E-03;
2.073750000000000E+09;-7.526144652297806E-01;-3.812257610082556E-01;-6.815858265451513E-01;-4.974783863061907E-01;5.052275241190138E-05;-1.287468269966513E-03;
2.075000000000000E+09;-7.732313769696380E-01;-3.379938718796221E-01;-7.093252341036548E-01;-4.574725112054714E-01;-2.770349527614407E-05;-1.238980179501013E-03;
2.076250000000000E+09;-7.914016755673001E-01;-2.938407716091896E-01;-7.347370586339178E-01;-4.156233441719275E-01;-5.649463515317442E-05;-1.205856509083458E-03;
2.077500000000000E+09;-8.069486008032031E-01;-2.487447508906659E-01;-7.576023558546623E-01;-3.728771903630040E-01;-1.203043951738989E-04;-1.202166805923171E-03;
2.078750000000000E+09;-8.200313413176340E-01;-2.030042365904484E-01;-7.778492068855660E-01;-3.285526502730556E-01;-1.880425667177339E-04;-1.128431561950907E-03;
2.080000000000000E+09;-8.303800223992318E-01;-1.563826303869190E-01;-7.956368781751620E-01;-2.832757515735037E-01;-2.675829667275201E-04;-1.181784837706902E-03;
2.081250000000000E+09;-8.382196958582891E-01;-1.098019175777738E-01;-8.109007701783584E-01;-2.374862622896761E-01;-2.903907025029673E-04;-1.157149796146971E-03;
2.082500000000000E+09;-8.433383131904840E-01;-6.297177745148838E-02;-8.234009927083155E-01;-1.905935319539573E-01;-3.517597509785127E-04;-1.115126032509516E-03;
2.083750000000000E+09;-8.458666484993209E-01;-1.598263628546289E-02;-8.330747784407920E-01;-1.435418899966855E-01;-4.306913600652471E-04;-1.058815958522717E-03;
2.085000000000000E+09;-8.458412201458311E-01;3.110264905304073E-02;-8.402126910279583E-01;-9.594393207999109E-02;-4.705465033331946E-04;-1.066365293458440E-03;
2.086250000000000E+09;-8.431173419824313E-01;7.800821547622384E-02;-8.445370187016987E-01;-4.790690925352747E-02;-5.293624405558761E-04;-9.769929900586990E-04;
2.087500000000000E+09;-8.378578648174421E-01;1.246982350941915E-01;-8.463334061722145E-01;-1.180444372555918E-04;-5.511701626911616E-04;-9.109177536581603E-04;
2.088750000000000E+09;-8.301219318895122E-01;1.709651271177657E-01;-8.450654245587562E-01;4.774694075438819E-02;-6.082056179253463E-04;-8.491802359638125E-04;
2.090000000000000E+09;-8.195861943421940E-01;2.165734694882777E-01;-8.416463935821482E-01;9.532064583371003E-02;-6.189092869372584E-04;-7.725662792874829E-04;
2.091250000000000E+09;-8.068908600259896E-01;2.617236208116858E-01;-8.349686520157676E-01;1.426207952809009E-01;-6.091756575940318E-04;-7.305369363845172E-04;
2.092500000000000E+09;-7.918790011162311E-01;3.057732475010241E-01;-8.260260494450919E-01;1.894601728829409E-01;-6.332337885956578E-04;-7.303072928693770E-04;
2.093750000000000E+09;-7.740796199865955E-01;3.490792311555850E-01;-8.145106045158265E-01;2.353505752522544E-01;-6.366450151548149E-04;-6.978927404817245E-04;
2.095000000000000E+09;-7.541078314487506E-01;3.909639350595279E-01;-8.006628132770047E-01;2.804700442937791E-01;-6.888892946417921E-04;-6.707148745781661E-04;
2.096250000000000E+09;-7.318707677068517E-01;4.318635534902166E-01;-7.838692923105203E-01;3.249135018894698E-01;-7.016335951690446E-04;-6.581814540191420E-04;
2.097500000000000E+09;-7.073565996722027E-01;4.714519447086325E-01;-7.651494957835827E-01;3.680727276211244E-01;-7.398174557842221E-04;-6.419549181074619E-04;
2.098750000000000E+09;-6.809788940890394E-01;5.093936021346691E-01;-7.436534146897023E-01;4.097947015713689E-01;-8.011152000068955E-04;-6.046505306182272E-04;
2.100000000000000E+09;-6.523753700903376E-01;5.461842843077541E-01;-7.202889966667699E-01;4.504807647717365E-01;-8.530787426594898E-04;-5.965401616600631E-04;
2.101250000000000E+09;-6.220079428224249E-01;5.809895713339742E-01;-6.947925991865040E-01;4.897165000257481E-01;-9.218561986541620E-04;-5.021256742810673E-04;
2.102500000000000E+09;-5.900854545900422E-01;6.140746599871867E-01;-6.671762961655354E-01;5.274698897278566E-01;-9.709263534016885E-04;-4.651969935989306E-04;
2.103750000000000E+09;-5.562202989941336E-01;6.454407737588436E-01;-6.372316331442571E-01;5.637402087353524E-01;-1.008293385514619E-03;-3.543116533822959E-04;
2.105000000000000E+09;-5.208825218389557E-01;6.747226240399110E-01;-6.058465548709568E-01;5.980564790797404E-01;-1.030245921882853E-03;-2.468726862922009E-04;
2.106250000000000E+09;-4.838952307909715E-01;7.021268864819364E-01;-5.724823234247018E-01;6.305024388341711E-01;-1.056882817584773E-03;-1.793531384194118E-04;
2.107500000000000E+09;-4.456734112365542E-01;7.277083659815492E-01;-5.373205191765047E-01;6.612683879297769E-01;-1.050017361855094E-03;-6.719209059097399E-05;
2.108750000000000E+09;-4.062616825659793E-01;7.505920610079104E-01;-5.008390389244306E-01;6.899330816987123E-01;-1.050787283081951E-03;1.642927923448874E-05;
2.110000000000000E+09;-3.655684772788054E-01;7.716900742014233E-01;-4.628735791663109E-01;7.163789950031655E-01;-1.003944459906338E-03;1.505258562067899E-04;
2.111250000000000E+09;-3.239844914314829E-01;7.905577239674249E-01;-4.234419877641939E-01;7.408747240301645E-01;-9.725307888215473E-04;1.993894123508881E-04;
2.112500000000000E+09;-2.813111415605736E-01;8.070416413396519E-01;-3.830782746105527E-01;7.629697910760852E-01;-9.165957735166359E-04;2.965318884981228E-04;
2.113750000000000E+09;-2.378812117195908E-01;8.211502119393415E-01;-3.415175022181822E-01;7.828087929144808E-01;-8.725056983000560E-04;3.578078171058635E-04;
2.115000000000000E+09;-1.939975018922435E-01;8.328523003451954E-01;-2.988920620938159E-01;8.004091765672935E-01;-7.983226049594522E-04;3.896640486888186E-04;
2.116250000000000E+09;-1.494403118255224E-01;8.422321731870712E-01;-2.554519933168333E-01;8.158988377055826E-01;-7.617371232862732E-04;4.626962086869659E-04;
2.117500000000000E+09;-1.048268584756676E-01;8.494401229454043E-01;-2.114578196571210E-01;8.285320714843250E-01;-6.743551285643306E-04;4.943501022833751E-04;
2.118750000000000E+09;-5.958497445767188E-02;8.538769932670152E-01;-1.670032017418423E-01;8.389256617755025E-01;-6.185808921397172E-04;5.305951217571620E-04;
2.120000000000000E+09;-1.436606664099033E-02;8.561541950554129E-01;-1.218709940893543E-01;8.467711121483615E-01;-5.666428507040663E-04;5.823305783534267E-04;
2.121250000000000E+09;3.105685023432017E-02;8.560467125550494E-01;-7.656618515668465E-02;8.523674250670316E-01;-4.896149148735602E-04;6.082309505355141E-04;
2.122500000000000E+09;7.663323519610095E-02;8.535376245623243E-01;-3.094195867139785E-02;8.557300422169538E-01;-4.119510299265068E-04;6.132493942205923E-04;
2.123750000000000E+09;1.216911046438668E-01;8.485574916283588E-01;1.464893852619542E-02;8.564837919920184E-01;-3.415038531834716E-04;5.866943541573598E-04;
2.125000000000000E+09;1.665712901553261E-01;8.410791823417469E-01;6.023035948591652E-02;8.546818150855910E-01;-2.887677028384852E-04;6.300594755219472E-04;
2.126250000000000E+09;2.108625016671788E-01;8.316956934110020E-01;1.054700977343122E-01;8.506286127214295E-01;-2.058173277951585E-04;6.246453121396777E-04;
2.127500000000000E+09;2.546045890750522E-01;8.194890915374898E-01;1.505146982790982E-01;8.441237269940259E-01;-1.115135301289005E-04;6.226165931235311E-04;
2.128750000000000E+09;2.976017394767764E-01;8.052128445534504E-01;1.949754378213410E-01;8.349914811155857E-01;-7.016117633464775E-05;5.910508551577328E-04;
2.130000000000000E+09;3.397728850567162E-01;7.886780086135639E-01;2.387260879467634E-01;8.239563256872611E-01;-1.632145629623484E-05;5.837219810137314E-04;
2.131250000000000E+09;3.809407368630515E-01;7.696735477579475E-01;2.820547074537219E-01;8.103965815477965E-01;3.542133808189867E-05;5.601234289495743E-04;
2.132500000000000E+09;4.211195032499948E-01;7.487322404814994E-01;3.245219032335203E-01;7.946118424658035E-01;8.448539993843456E-05;4.984011991942861E-04;
2.133750000000000E+09;4.602059788725650E-01;7.255077069508734E-01;3.659245109815111E-01;7.766138555586076E-01;9.047355923460657E-05;4.748608145143596E-04;
2.135000000000000E+09;4.977436875247299E-01;7.005740362285274E-01;4.063680024982843E-01;7.564469139226182E-01;1.879853075004653E-04;4.373406227537048E-04;
2.136250000000000E+09;5.338836960694749E-01;6.734213601180029E-01;4.457182427608780E-01;7.340101113962854E-01;2.174131251232370E-04;4.181815344598245E-04;
2.137500000000000E+09;5.685357352887837E-01;6.445794445459069E-01;4.837222534268412E-01;7.097494578296526E-01;2.002972999558565E-04;3.539538707511860E-04;
2.138750000000000E+09;6.016928398616975E-01;6.137927219152626E-01;5.204028878955935E-01;6.833932204483048E-01;2.505139265138109E-04;2.993679876704526E-04;
2.140000000000000E+09;6.331101617943544E-01;5.815224807254239E-01;5.554952541594929E-01;6.551485295616184E-01;2.368967206157467E-04;2.748329880108452E-04;
2.141250000000000E+09;6.628167555461340E-01;5.473077872980623E-01;5.892675645923354E-01;6.252111541792545E-01;2.571265615892852E-04;2.348096607395060E-04;
2.142500000000000E+09;6.909495028797743E-01;5.115420865027506E-01;6.213345154838302E-01;5.937012226534197E-01;2.568890553328479E-04;1.991728851692982E-04;
2.143750000000000E+09;7.170683506427882E-01;4.745093330468971E-01;6.517271484738442E-01;5.603340759182155E-01;2.780425169728822E-04;1.956698310097961E-04;
2.145000000000000E+09;7.410609166588709E-01;4.361898353678491E-01;6.802877889171274E-01;5.254328745153348E-01;2.863484290934202E-04;1.703491723698439E-04;
2.146250000000000E+09;7.631214254380988E-01;3.964943600980012E-01;7.067479616694888E-01;4.888490338962526E-01;2.479426904979425E-04;1.263960418219134E-04;
2.147500000000000E+09;7.829984454525001E-01;3.557667870535872E-01;7.316434085606796E-01;4.512614880790818E-01;2.505602850317073E-04;1.222649085199155E-04;
2.148750000000000E+09;8.006207326102344E-01;3.137353758467148E-01;7.543915561927880E-01;4.119886303787885E-01;2.821093438955792E-04;8.844331389211454E-05;
2.150000000000000E+09;8.162254131378091E-01;2.711012107345373E-01;7.751282211894608E-01;3.721377324400985E-01;2.493752194998941E-04;6.573148088559980E-05;
2.151250000000000E+09;8.292209159827491E-01;2.275164621493619E-01;7.933675858557538E-01;3.306505859163296E-01;2.693888141470893E-04;5.640297443720021E-05;
2.152500000000000E+09;8.400224872083144E-01;1.833961150113097E-01;8.095523134203754E-01;2.885268602368142E-01;3.033012258956296E-04;2.310533434596447E-05;
2.153750000000000E+09;8.482294737245371E-01;1.387097455005538E-01;8.235295334766825E-01;2.454849864633459E-01;3.014495038870957E-04;1.504361736282976E-05;
2.155000000000000E+09;8.542214980539118E-01;9.350623199274864E-02;8.352889818170230E-01;2.018327158461989E-01;2.881909407255369E-04;-2.174405968391466E-05;
2.156250000000000E+09;8.578668217766621E-01;4.821613082710526E-02;8.445528274232664E-01;1.574589832736359E-01;2.878434552283190E-04;-7.213960153082260E-05;
