# Version 1.00
#
freq[Hz];re:Trc1_S11;im:Trc1_S11;re:Trc2_S22;im:Trc2_S22;re:Trc3_S21;im:Trc3_S21;
2.000000000000000E+09;6.169445651985767E-01;5.752929177403837E-01;5.587969201969705E-01;6.400198389341966E-01;-1.523325725777012E-05;1.238345682993816E-03;
2.001250000000000E+09;6.488525366428400E-01;5.390404876376657E-01;5.940523096478565E-01;6.074240199613918E-01;4.962295107408621E-05;1.285084135862589E-03;
2.002500000000000E+09;6.785825114169302E-01;5.009514479202389E-01;6.270773777618071E-01;5.730050934445686E-01;1.270123235789811E-04;1.260663285021830E-03;
2.003750000000000E+09;7.061892366853295E-01;4.611997739261809E-01;6.585999316493123E-01;5.368077677439027E-01;1.880901805212914E-04;1.263738263021246E-03;
2.005000000000000E+09;7.312940752674492E-01;4.198125669712039E-01;6.876996819920036E-01;4.988043776878175E-01;2.625197458570335E-04;1.253976957531263E-03;
2.006250000000000E+09;7.542060725640614E-01;3.772580641887195E-01;7.149353746864539E-01;4.593297340101962E-01;3.060930606310532E-04;1.264258587370084E-03;
2.007500000000000E+09;7.743372151832455E-01;3.335429242576652E-01;7.397539994699178E-01;4.178674069804864E-01;4.223917038484805E-04;1.272502248355498E-03;
2.008750000000000E+09;7.922776397594906E-01;2.882682544010776E-01;7.622498479224750E-01;3.753692217865409E-01;5.024506221361506E-04;1.251963526259077E-03;
2.010000000000000E+09;8.073668376685410E-01;2.422535211320000E-01;7.823529016999418E-01;3.313238675922798E-01;5.841320208229207E-04;1.268869586727850E-03;
2.011250000000000E+09;8.198160050990948E-01;1.953677925701734E-01;7.996871201630252E-01;2.863934215561457E-01;6.704319527340722E-04;1.232825251919283E-03;
2.012500000000000E+09;8.296637786397991E-01;1.478446098313707E-01;8.149125217884199E-01;2.403645683170136E-01;7.698245083241446E-04;1.212956990369346E-03;
2.013750000000000E+09;8.367401034531922E-01;9.965504186286601E-02;8.269285071325162E-01;1.935875877133832E-01;8.976805894692472E-04;1.169431159800619E-03;
2.015000000000000E+09;8.411514777344322E-01;5.118990987899144E-02;8.366516839926355E-01;1.461054737898144E-01;9.442483683697448E-04;1.130272481482440E-03;
2.016250000000000E+09;8.423509888390525E-01;2.554017512391573E-03;8.434702343644297E-01;9.809059938694267E-02;1.047530397245344E-03;1.062984497390857E-03;
2.017500000000000E+09;8.409974495916183E-01;-4.618760451199111E-02;8.476665055144359E-01;4.942146477969191E-02;1.157369956795438E-03;9.946784768184616E-04;
2.018750000000000E+09;8.370310435006698E-01;-9.484121966656263E-02;8.488643848478153E-01;1.008250189007616E-03;1.225992064005352E-03;9.170823314284515E-04;
2.020000000000000E+09;8.297400132234802E-01;-1.432083309402049E-01;8.471761958375661E-01;-4.789490036352047E-02;1.288430453599618E-03;8.226069722879503E-04;
2.021250000000000E+09;8.200544432538568E-01;-1.906798936184102E-01;8.432284660603313E-01;-9.615739231373306E-02;1.340264237881260E-03;7.245155279216588E-04;
2.022500000000000E+09;8.076037922009577E-01;-2.378423382242247E-01;8.361079260351257E-01;-1.441722010879285E-01;1.404768848700306E-03;6.181487891063926E-04;
2.023750000000000E+09;7.923701497493952E-01;-2.842067837570366E-01;8.261821372945504E-01;-1.919904255561213E-01;1.430442689057455E-03;4.728386877939720E-04;
2.025000000000000E+09;7.744571879807091E-01;-3.296260101232394E-01;8.136938727563600E-01;-2.392559171902294E-01;1.462094280362741E-03;3.829093581487339E-04;
2.026250000000000E+09;7.537579491186884E-01;-3.738617365103943E-01;7.985092477905318E-01;-2.856074097924557E-01;1.472131794595739E-03;2.834277448187229E-04;
2.027500000000000E+09;7.307251185103620E-01;-4.169930434000857E-01;7.804627720764159E-01;-3.312053735260401E-01;1.431017397565942E-03;1.873333867630473E-04;
2.028750000000000E+09;7.051657303778793E-01;-4.587729788367315E-01;7.599246895552028E-01;-3.755064947568506E-01;1.428506926830591E-03;8.381875347779004E-05;
2.030000000000000E+09;6.771313812212014E-01;-4.989794346743226E-01;7.370369014847894E-01;-4.187109356141223E-01;1.403570940866200E-03;-5.285515208692735E-06;
2.031250000000000E+09;6.467276897216711E-01;-5.374830257080566E-01;7.111390297624740E-01;-4.605643728062191E-01;1.384941163267417E-03;-5.904754864894949E-05;
2.032500000000000E+09;6.141566317129654E-01;-5.743736653038778E-01;6.832312259355893E-01;-5.009292069741298E-01;1.411937399186869E-03;-1.495523758238575E-04;
2.033750000000000E+09;5.796838872209271E-01;-6.089063910965166E-01;6.528636474744155E-01;-5.396378211703798E-01;1.383287123041446E-03;-2.441188240361086E-04;
2.035000000000000E+09;5.432330565930193E-01;-6.416425251748739E-01;6.206295337511740E-01;-5.763495546156527E-01;1.337196736888780E-03;-3.147092793832112E-04;
2.036250000000000E+09;5.045848938543553E-01;-6.723813677109031E-01;5.857018412495715E-01;-6.112205482125521E-01;1.320161458644844E-03;-3.937690722980885E-04;
2.037500000000000E+09;4.642880100868322E-01;-7.004413966727479E-01;5.491411767298919E-01;-6.443351072903800E-01;1.268108014348022E-03;-4.826954822586562E-04;
2.038750000000000E+09;4.224751869231531E-01;-7.264626403202223E-01;5.105777985319255E-01;-6.750782554786974E-01;1.210295516167955E-03;-5.560226367611042E-04;
2.040000000000000E+09;3.792977536940952E-01;-7.500280849333902E-01;4.701489492788821E-01;-7.033882569103114E-01;1.167464191720729E-03;-5.958094344305423E-04;
2.041250000000000E+09;3.348314054337045E-01;-7.705803021917697E-01;4.284014945165699E-01;-7.294317403904930E-01;1.129652240019741E-03;-6.849477665443271E-04;
2.042500000000000E+09;2.895299352614248E-01;-7.888593161047412E-01;3.852146049113594E-01;-7.530021614086847E-01;1.072237508612323E-03;-7.195123149501992E-04;
2.043750000000000E+09;2.430910818628818E-01;-8.043184892342496E-01;3.405568059241769E-01;-7.742430797693075E-01;1.034433701386581E-03;-7.485815529909972E-04;
2.045000000000000E+09;1.956389397591794E-01;-8.171177755291099E-01;2.945496075823503E-01;-7.925836990110821E-01;9.441722388544116E-04;-8.196445169201260E-04;
2.046250000000000E+09;1.477216533402778E-01;-8.268621427382146E-01;2.478654360042004E-01;-8.085149075567798E-01;8.977471130683344E-04;-8.293217850616693E-04;
2.047500000000000E+09;9.934967209186017E-02;-8.344677208618807E-01;2.000573868411652E-01;-8.214936648144404E-01;8.776461972923756E-04;-8.901332452232796E-04;
2.048750000000000E+09;5.040463688638014E-02;-8.386181743101085E-01;1.517612500055177E-01;-8.315565582972014E-01;8.028890960734496E-04;-9.125386300047806E-04;
2.050000000000000E+09;1.643746161695671E-03;-8.402797093959701E-01;1.029028069260042E-01;-8.392231779910723E-01;7.468720601819702E-04;-9.689846618293451E-04;
2.051250000000000E+09;-4.703890484324854E-02;-8.387701058214319E-01;5.366876613904993E-02;-8.436268698374526E-01;7.034647597592726E-04;-9.964869934870433E-04;
2.052500000000000E+09;-9.592627701572512E-02;-8.347490501326272E-01;4.236298372390525E-03;-8.450743600841396E-01;6.409960870116857E-04;-9.649899996558239E-04;
2.053750000000000E+09;-1.443058859553521E-01;-8.279415144532641E-01;-4.529879535759213E-02;-8.437470448713664E-01;5.809523381389852E-04;-1.000495489781568E-03;
2.055000000000000E+09;-1.923750710457383E-01;-8.182198559828362E-01;-9.460263265201155E-02;-8.399047278213393E-01;5.348562511064296E-04;-1.012879331479513E-03;
2.056250000000000E+09;-2.395627938978469E-01;-8.057579611792232E-01;-1.434392356106961E-01;-8.330146438863216E-01;4.553495444895002E-04;-1.025795600239701E-03;
2.057500000000000E+09;-2.858113487695313E-01;-7.906835514908759E-01;-1.918035416289481E-01;-8.228422965449526E-01;4.586726638300629E-04;-1.029791377865106E-03;
2.058750000000000E+09;-3.316521594443229E-01;-7.727649649461007E-01;-2.395422405097623E-01;-8.102555628189638E-01;4.307829390836717E-04;-1.063770963972654E-03;
2.060000000000000E+09;-3.756793051553664E-01;-7.524323012391242E-01;-2.861922920688298E-01;-7.947635724605663E-01;3.960718463255367E-04;-1.037487950673007E-03;
2.061250000000000E+09;-4.184780658814379E-01;-7.296672147311208E-01;-3.323257337217460E-01;-7.767461928727496E-01;3.586380944334201E-04;-1.102925759626088E-03;
2.062500000000000E+09;-4.600317563274863E-01;-7.045232317140624E-01;-3.769044894390073E-01;-7.562164763963636E-01;3.258187946413628E-04;-1.143601798541283E-03;
2.063750000000000E+09;-4.996532042161744E-01;-6.771233411809622E-01;-4.204233309667393E-01;-7.333261479765878E-01;2.536741065259982E-04;-1.119039014088042E-03;
2.065000000000000E+09;-5.380201091097278E-01;-6.473688060943518E-01;-4.622114076533684E-01;-7.075661473514963E-01;1.715849268571869E-04;-1.132197035130466E-03;
2.066250000000000E+09;-5.741369911834444E-01;-6.156811589259236E-01;-5.025704788303831E-01;-6.797314693358160E-01;1.669262949665699E-04;-1.161526328002388E-03;
2.067500000000000E+09;-6.086535846033708E-01;-5.822323214250988E-01;-5.414524166579637E-01;-6.495786052071348E-01;1.085548032684694E-04;-1.135164431583958E-03;
2.068750000000000E+09;-6.411904466098973E-01;-5.463996887507985E-01;-5.784204062519249E-01;-6.171867550538088E-01;7.401607146998517E-05;-1.177864348061418E-03;
2.070000000000000E+09;-6.713611321342291E-01;-5.091552409537120E-01;-6.128281945778769E-01;-5.828325852654931E-01;2.245995503978237E-05;-1.186254637837299E-03;
2.071250000000000E+09;-6.995777178033973E-01;-4.701198771461224E-01;-6.458342700570524E-01;-5.465004735827609E-01;-1.663540177014062E-05;-1.221485517545506E-03;
2.072500000000000E+09;-7.255239103168644E-01;-4.296950823898544E-01;-6.763328887857498E-01;-5.083404541366997E-01;-7.654504675115748E-05;-1.238108866935290E-03;
2.073750000000000E+09;-7.490092736551247E-01;-3.878370610339061E-01;-7.048447924967653E-01;-4.688017731776905E-01;-1.566952505466992E-04;-1.255284896165563E-03;
2.075000000000000E+09;-7.700766242173416E-01;-3.448436317253586E-01;-7.304218945446657E-01;-4.275163945196174E-01;-2.106677288423175E-04;-1.274494643787337E-03;
2.076250000000000E+09;-7.886726407146500E-01;-3.006666563759874E-01;-7.544438323461573E-01;-3.848438783883917E-01;-2.812954581790274E-04;-1.262181806822845E-03;
2.077500000000000E+09;-8.045559455675083E-01;-2.557774445009343E-01;-7.752026057040814E-01;-3.411158481038192E-01;-3.825484487000947E-04;-1.247549805853432E-03;
2.078750000000000E+09;-8.182018852556205E-01;-2.099500820434043E-01;-7.936932081474780E-01;-2.961926761011769E-01;-4.747037610173673E-04;-1.241628292877888E-03;
2.080000000000000E+09;-8.289042615456520E-01;-1.636453646688747E-01;-8.093349191591601E-01;-2.506092283892162E-01;-5.236377988985943E-04;-1.219697773295070E-03;
2.081250000000000E+09;-8.371650873549871E-01;-1.167005593117428E-01;-8.228360448968211E-01;-2.039974978863455E-01;-5.935927742299807E-04;-1.165515637496968E-03;
2.082500000000000E+09;-8.425928286699131E-01;-7.002144625444197E-02;-8.331102000789296E-01;-1.567785841590173E-01;-6.762950976388902E-04;-1.165492499702804E-03;
2.083750000000000E+09;-8.455366849068640E-01;-2.291797739898789E-02;-8.410318522286988E-01;-1.093107580889030E-01;-6.879697344037048E-04;-1.121705656336456E-03;
2.085000000000000E+09;-8.458836161718369E-01;2.391744848122922E-02;-8.460907699649557E-01;-6.146470865894436E-02;-7.480458192036281E-04;-1.078533370298680E-03;
2.086250000000000E+09;-8.435604763411444E-01;7.136611161923750E-02;-8.485571474800476E-01;-1.358612924485971E-02;-8.092191160259422E-04;-1.058263970435821E-03;
2.087500000000000E+09;-8.386539887487587E-01;1.177328115537039E-01;-8.483086473540139E-01;3.407900984102309E-02;-8.597411167168114E-04;-1.034922115769736E-03;
2.088750000000000E+09;-8.314043254955488E-01;1.642661472901535E-01;-8.454005322483483E-01;8.198877710658026E-02;-9.115256753437885E-04;-1.011865919277954E-03;
2.090000000000000E+09;-8.211519601634401E-01;2.101163714223469E-01;-8.397055492824934E-01;1.291190092870953E-01;-9.567353600293626E-04;-1.007340162371089E-03;
2.091250000000000E+09;-8.088442141343130E-01;2.551824051544008E-01;-8.314867090041235E-01;1.758484974920945E-01;-1.073918727111107E-03;-9.721335633595212E-04;
2.092500000000000E+09;-7.938076412833035E-01;2.995314310721621E-01;-8.205961241897840E-01;2.219548207064548E-01;-1.142898149337388E-03;-9.188726045819078E-04;
2.093750000000000E+09;-7.764874962976568E-01;3.430064637648664E-01;-8.072933786198064E-01;2.673652292225576E-01;-1.256979299204695E-03;-8.913353068168681E-04;
2.095000000000000E+09;-7.567074543203364E-01;3.851981491317421E-01;-7.915200854877606E-01;3.117947420712853E-01;-1.308997277612770E-03;-8.232180634068024E-04;
2.096250000000000E+09;-7.348683495458090E-01;4.261681917591755E-01;-7.734118214686952E-01;3.551909806962019E-01;-1.432466207344286E-03;-7.091698240368605E-04;
2.097500000000000E+09;-7.106752659693946E-01;4.660465274368823E-01;-7.530713434192736E-01;3.973413676691184E-01;-1.455322381730712E-03;-6.169201419195984E-04;
2.098750000000000E+09;-6.845148964106561E-01;5.045188748760621E-01;-7.302385512005680E-01;4.383488077341648E-01;-1.531137875558015E-03;-5.243249000047155E-04;
2.100000000000000E+09;-6.561419491737148E-01;5.413408777197115E-01;-7.055229623318308E-01;4.780835560002813E-01;-1.537893230222113E-03;-3.742994619102161E-04;
2.101250000000000E+09;-6.258102196620274E-01;5.762843390119259E-01;-6.785675555035592E-01;5.162883088599657E-01;-1.588406869330036E-03;-2.533925996862813E-04;
2.102500000000000E+09;-5.941744829323642E-01;6.098286220369378E-01;-6.495496730051324E-01;5.530831174623967E-01;-1.599147291711923E-03;-1.412517863484384E-04;
2.103750000000000E+09;-5.606261451959755E-01;6.414483442984942E-01;-6.187436219652088E-01;5.879593353231760E-01;-1.549613278276804E-03;-1.929773520301144E-05;
2.105000000000000E+09;-5.252482480470427E-01;6.710576607980253E-01;-5.860538624288271E-01;6.210424589079913E-01;-1.539118633535743E-03;9.048354199224158E-05;
2.106250000000000E+09;-4.886670024149105E-01;6.987047483795592E-01;-5.516915084590545E-01;6.523879906237764E-01;-1.512755243709605E-03;1.411874830789311E-04;
2.107500000000000E+09;-4.505252149819463E-01;7.243044247896928E-01;-5.157841099526675E-01;6.816065846658633E-01;-1.487091618660385E-03;2.319024726575575E-04;
2.108750000000000E+09;-4.110183945784966E-01;7.477909268380719E-01;-4.783271929789779E-01;7.090257238322276E-01;-1.435357816738168E-03;3.131782510096889E-04;
2.110000000000000E+09;-3.705246979677752E-01;7.691010884442843E-01;-4.393978230445449E-01;7.340913031596961E-01;-1.402818495756921E-03;3.543295960481974E-04;
2.111250000000000E+09;-3.288652863102596E-01;7.880397854890127E-01;-3.994410860748006E-01;7.568817549690506E-01;-1.324018104630667E-03;4.245512600694334E-04;
2.112500000000000E+09;-2.863321977365058E-01;8.049746810240317E-01;-3.584723590327809E-01;7.775800287891138E-01;-1.312637058002251E-03;5.004341679700712E-04;
2.113750000000000E+09;-2.431333677979096E-01;8.193512740335877E-01;-3.161839378973872E-01;7.961071382721175E-01;-1.288185993660180E-03;4.587160441120918E-04;
2.115000000000000E+09;-1.993092341462984E-01;8.313558773749234E-01;-2.734172673024581E-01;8.121032782835035E-01;-1.285765030019710E-03;5.308062457735020E-04;
2.116250000000000E+09;-1.546331686395297E-01;8.411055471960117E-01;-2.297282664688700E-01;8.259291930012310E-01;-1.277344063026585E-03;5.450474606272603E-04;
2.117500000000000E+09;-1.100940892173786E-01;8.484122522113454E-01;-1.853951472037309E-01;8.371433691966594E-01;-1.280709302983913E-03;6.492532758167254E-04;
2.118750000000000E+09;-6.474011238803548E-02;8.534219041211675E-01;-1.408046542682341E-01;8.461915303710910E-01;-1.272709935412519E-03;7.247316669075109E-04;
2.120000000000000E+09;-1.955593388389458E-02;8.558831737771728E-01;-9.558482153546492E-02;8.527861883780939E-01;-1.279250410377936E-03;8.443993956700838E-04;
2.121250000000000E+09;2.596111144794851E-02;8.560992172227350E-01;-5.016405885701997E-02;8.569232047263494E-01;-1.261249614009420E-03;8.522341800948514E-04;
2.122500000000000E+09;7.147651101337878E-02;8.537698164254371E-01;-4.693714148903934E-03;8.587368791565670E-01;-1.136044366560931E-03;9.708710431623118E-04;
2.123750000000000E+09;1.167997485225187E-01;8.492055155378696E-01;4.064374700878016E-02;8.580161903856098E-01;-1.123388862963943E-03;1.052386800902524E-03;
2.125000000000000E+09;1.616660662311274E-01;8.419571071262534E-01;8.588924167010285E-02;8.548604144108946E-01;-1.056806428682986E-03;1.095867016100951E-03;
2.126250000000000E+09;2.061678131145055E-01;8.325780139285907E-01;1.307849944236888E-01;8.493993906179038E-01;-1.018146197408483E-03;1.151338683520743E-03;
2.127500000000000E+09;2.500887421830550E-01;8.207237476461442E-01;1.753563837415337E-01;8.416132600599509E-01;-9.780879295453566E-04;1.209827324496194E-03;
2.128750000000000E+09;2.932139097246345E-01;8.064257320226388E-01;2.194448051928267E-01;8.316209011355213E-01;-9.277768310094684E-04;1.309573477869882E-03;
2.130000000000000E+09;3.354909834604746E-01;7.900863936119926E-01;2.628563852231405E-01;8.190459396269310E-01;-8.500788985812005E-04;1.383881046960129E-03;
2.131250000000000E+09;3.769848955795667E-01;7.716337518822517E-01;3.055415942219091E-01;8.043477138226824E-01;-7.578821525524167E-04;1.433665576196451E-03;
2.132500000000000E+09;4.172536428136658E-01;7.508144061862466E-01;3.473063972313719E-01;7.872889158993895E-01;-6.827025934206611E-04;1.514151142060100E-03;
2.133750000000000E+09;4.564216951755415E-01;7.277229218719546E-01;3.881032954716148E-01;7.682947821653286E-01;-5.731757974995015E-04;1.538514412323907E-03;
2.135000000000000E+09;4.940758325642035E-01;7.028121615466724E-01;4.278020282829343E-01;7.470663643103611E-01;-4.837065732327931E-04;1.583817405054586E-03;
2.136250000000000E+09;5.303832409324878E-01;6.759336615047035E-01;4.665642355120109E-01;7.238056838643276E-01;-3.968805696844745E-04;1.618121072540990E-03;
2.137500000000000E+09;5.652991895216813E-01;6.471246904065122E-01;5.035842083540440E-01;6.986409215832993E-01;-3.086919734100468E-04;1.631259384573010E-03;
2.138750000000000E+09;5.983868727613204E-01;6.164187694432109E-01;5.394499117719406E-01;6.714070533202098E-01;-2.022305855208253E-04;1.638863237984770E-03;
2.140000000000000E+09;6.301386051782890E-01;5.842146446131612E-01;5.740024508102470E-01;6.424020311029872E-01;-1.055505265740373E-04;1.674736983551436E-03;
2.141250000000000E+09;6.601391383731892E-01;5.502743929600408E-01;6.065328091685671E-01;6.117193065436325E-01;-9.590439599426904E-06;1.667765231108060E-03;
2.142500000000000E+09;6.881643817374504E-01;5.146122122351392E-01;6.379544743739358E-01;5.793673773957948E-01;1.051947088695846E-04;1.671670974288380E-03;
2.143750000000000E+09;7.144415622787459E-01;4.777781508237131E-01;6.672680490894235E-01;5.452800232875248E-01;2.188619369307208E-04;1.678762666164492E-03;
2.145000000000000E+09;7.387261305447981E-01;4.392294417328785E-01;6.948934830503904E-01;5.099564986140822E-01;3.084541949027517E-04;1.616413153552229E-03;
2.146250000000000E+09;7.609121271048176E-01;3.997727669052506E-01;7.205349317570852E-01;4.729132673784328E-01;4.220522958474724E-04;1.600641995242230E-03;
2.147500000000000E+09;7.810151103443268E-01;3.591187539972207E-01;7.443750062324664E-01;4.348016848342462E-01;5.067154563146190E-04;1.567554002206074E-03;
2.148750000000000E+09;7.988392152318173E-01;3.173029124450228E-01;7.660958384825892E-01;3.953216153993578E-01;5.928495341894700E-04;1.488801628816981E-03;
2.150000000000000E+09;8.143557488287404E-01;2.747905914396857E-01;7.857996237768579E-01;3.545412475504819E-01;6.593878278307364E-04;1.473597539980198E-03;
2.151250000000000E+09;8.278035863202504E-01;2.315431472559176E-01;8.032032192608086E-01;3.132100736559087E-01;7.309279504877285E-04;1.384562440509756E-03;
2.152500000000000E+09;8.387974116779091E-01;1.873557253161699E-01;8.185443729118331E-01;2.706178361475494E-01;7.753491552045950E-04;1.354209825609957E-03;
2.153750000000000E+09;8.473712865804369E-01;1.427652842611486E-01;8.315711880007840E-01;2.271880081936144E-01;8.395299116022175E-04;1.361579435444634E-03;
2.155000000000000E+09;8.535456368962510E-01;9.758476630020207E-02;8.420898870646212E-01;1.835282066357716E-01;8.554792150451872E-04;1.318835559381225E-03;
2.156250000000000E+09;8.572573183338886E-01;5.215879547761185E-02;8.505255765053519E-01;1.390689359800500E-01;9.534497285902977E-04;1.271073917097264E-03;
