# Version 1.00
#
freq[Hz];re:Trc1_S11;im:Trc1_S11;re:Trc2_S22;im:Trc2_S22;re:Trc3_S21;im:Trc3_S21;
2.000000000000000E+09;5.984535990844527E-01;5.966791200436344E-01;5.161415761729586E-01;6.739704485308771E-01;6.216360866234020E-05;1.404813547366606E-03;
2.001250000000000E+09;6.313546935390496E-01;5.616739574023092E-01;5.532168338980966E-01;6.438548842091831E-01;1.589320777347036E-04;1.389548399029790E-03;
2.002500000000000E+09;6.623660412125881E-01;5.246511319484740E-01;5.886506900724572E-01;6.118697759206780E-01;2.326811142130613E-04;1.395276089989618E-03;
2.003750000000000E+09;6.912307617656367E-01;4.860332418670414E-01;6.220688128696065E-01;5.776573587269271E-01;3.419731503387773E-04;1.333617411574618E-03;
2.005000000000000E+09;7.177724188685860E-01;4.457157128765005E-01;6.534206054454351E-01;5.418896352852360E-01;4.224715434302318E-04;1.338734568837843E-03;
2.006250000000000E+09;7.420286676530385E-01;4.039504381954822E-01;6.830002182420046E-01;5.043014389731327E-01;5.111322117248645E-04;1.273912948302239E-03;
2.007500000000000E+09;7.638152816325007E-01;3.608696521096152E-01;7.101570502752652E-01;4.649752420004180E-01;5.795900708773321E-04;1.265102353411955E-03;
2.008750000000000E+09;7.830919463778999E-01;3.164033050060242E-01;7.353057016460017E-01;4.242355690939542E-01;6.905905866617453E-04;1.186699972473493E-03;
2.010000000000000E+09;7.999736384136243E-01;2.708689678633454E-01;7.582272754155662E-01;3.820658308586034E-01;7.445479735772108E-04;1.152195024030306E-03;
2.011250000000000E+09;8.139327674658344E-01;2.246327338692584E-01;7.783803876083423E-01;3.383085372996527E-01;7.972840028646631E-04;1.096800771236234E-03;
2.012500000000000E+09;8.253493127887729E-01;1.775002835145378E-01;7.961918593027423E-01;2.938112051775195E-01;8.426431929860831E-04;1.042481072852883E-03;
2.013750000000000E+09;8.339835595874943E-01;1.295627569266407E-01;8.116159450190686E-01;2.479214482470689E-01;8.679521937606014E-04;9.787104155531939E-04;
2.015000000000000E+09;8.398947073610917E-01;8.141981546851192E-02;8.244659684581277E-01;2.015007303434770E-01;9.395306826797287E-04;9.271154965469669E-04;
2.016250000000000E+09;8.431053621616138E-01;3.284736898778089E-02;8.344016587488009E-01;1.540849273943038E-01;9.907099528744139E-04;8.859061017587235E-04;
2.017500000000000E+09;8.436302188406778E-01;-1.566412099261881E-02;8.418686103062630E-01;1.062477846781668E-01;1.032881635539198E-03;8.334477378413310E-04;
2.018750000000000E+09;8.411229752384767E-01;-6.430676748759641E-02;8.463495672069088E-01;5.782751986568697E-02;1.094983096693637E-03;7.491134638983253E-04;
2.020000000000000E+09;8.357640031926762E-01;-1.130488588984467E-01;8.481192558156017E-01;9.307975952441783E-03;1.104167504599205E-03;6.923692231631781E-04;
2.021250000000000E+09;8.278326821236156E-01;-1.609436677248776E-01;8.472003981331976E-01;-3.901669474424475E-02;1.177178234862261E-03;6.184275935161986E-04;
2.022500000000000E+09;8.169207357542732E-01;-2.084613850396179E-01;8.433892950286845E-01;-8.745967540360770E-02;1.193374932739293E-03;5.374217824696037E-04;
2.023750000000000E+09;8.033419175544816E-01;-2.553917078827876E-01;8.367995477532479E-01;-1.356732668927237E-01;1.242579513720268E-03;5.064711630242357E-04;
2.025000000000000E+09;7.871316831675560E-01;-3.012425056987064E-01;8.275289335344153E-01;-1.835400582398976E-01;1.211541511226390E-03;3.980796685652967E-04;
2.026250000000000E+09;7.682783306400025E-01;-3.462334906832883E-01;8.154431799169347E-01;-2.306052792823817E-01;1.240490074805627E-03;3.507113850994927E-04;
2.027500000000000E+09;7.467919480759984E-01;-3.902345182504116E-01;8.004846174450000E-01;-2.771036373560045E-01;1.252527263737585E-03;2.937858032842165E-04;
2.028750000000000E+09;7.228342124785176E-01;-4.328648049950318E-01;7.830482221682816E-01;-3.226341497942616E-01;1.260264881524003E-03;2.279668087765716E-04;
2.030000000000000E+09;6.962207207550729E-01;-4.740123260800698E-01;7.630961846194788E-01;-3.672017473155710E-01;1.265470195655791E-03;1.719679399324515E-04;
2.031250000000000E+09;6.672962738047457E-01;-5.134918329263316E-01;7.402178091982329E-01;-4.108488205206354E-01;1.247286093130222E-03;6.982165330953495E-05;
2.032500000000000E+09;6.361822143009179E-01;-5.516650481171853E-01;7.150655905337805E-01;-4.526476023878272E-01;1.293075172732964E-03;3.738767083410499E-05;
2.033750000000000E+09;6.028552948688055E-01;-5.876653119090923E-01;6.874939372928520E-01;-4.933238515511206E-01;1.261640073917041E-03;-3.835089975817027E-05;
2.035000000000000E+09;5.674737354634799E-01;-6.216927496216031E-01;6.575357865445596E-01;-5.320844747735624E-01;1.275065088711526E-03;-8.481372205648703E-05;
2.036250000000000E+09;5.299496201707369E-01;-6.537620656062596E-01;6.255360595902418E-01;-5.691706765143160E-01;1.258335309346268E-03;-1.492001398215040E-04;
2.037500000000000E+09;4.907688236594173E-01;-6.836109240254301E-01;5.910341233323344E-01;-6.044892861313151E-01;1.269061083897796E-03;-2.329534247000923E-04;
2.038750000000000E+09;4.499466545061609E-01;-7.110087750722942E-01;5.547087379408918E-01;-6.378424635230686E-01;1.285746532128455E-03;-2.732024991933648E-04;
2.040000000000000E+09;4.074704908363754E-01;-7.361526955709891E-01;5.164127343504581E-01;-6.689399489592148E-01;1.282205347440009E-03;-3.200685795495679E-04;
2.041250000000000E+09;3.640078810027023E-01;-7.586861315711273E-01;4.764847901742071E-01;-6.978822637099718E-01;1.247669252013974E-03;-4.030916331921682E-04;
2.042500000000000E+09;3.189505965386822E-01;-7.784853481569081E-01;4.348154391747823E-01;-7.242353571172326E-01;1.253338507511985E-03;-4.980407692427995E-04;
2.043750000000000E+09;2.730974952825520E-01;-7.954517226103939E-01;3.919338665669395E-01;-7.483705090363211E-01;1.219287206208155E-03;-5.515830329263034E-04;
2.045000000000000E+09;2.264489504767374E-01;-8.099758755509187E-01;3.473759699340496E-01;-7.696298176224937E-01;1.205845518042856E-03;-6.719949281500132E-04;
2.046250000000000E+09;1.785646096979665E-01;-8.216724472968617E-01;3.016177703523906E-01;-7.883825246356493E-01;1.166287038968174E-03;-7.095350379646544E-04;
2.047500000000000E+09;1.303250401432486E-01;-8.308235261901055E-01;2.551184461551023E-01;-8.047034056285068E-01;1.120280494635829E-03;-8.282465244527509E-04;
2.048750000000000E+09;8.170962809188290E-02;-8.369006001467671E-01;2.076326227449791E-01;-8.179799621204696E-01;1.072264759533936E-03;-8.673259320084243E-04;
2.050000000000000E+09;3.292249318904966E-02;-8.401401478712840E-01;1.593202458622744E-01;-8.284989702379513E-01;9.630139041369135E-04;-9.438912092766860E-04;
2.051250000000000E+09;-1.609553114576699E-02;-8.408196146496870E-01;1.103404561995614E-01;-8.362896177406028E-01;9.405366895950252E-04;-9.938093266967580E-04;
2.052500000000000E+09;-6.525545360567281E-02;-8.382703344776722E-01;6.109398834820332E-02;-8.411674967459710E-01;9.078172357441148E-04;-1.075427292288962E-03;
2.053750000000000E+09;-1.138924402957246E-01;-8.330512306617064E-01;1.178186048652447E-02;-8.435165119763244E-01;7.961341364481822E-04;-1.096897326629222E-03;
2.055000000000000E+09;-1.623671800513467E-01;-8.250415059920198E-01;-3.764539086151815E-02;-8.422953132554557E-01;7.036105096356974E-04;-1.103132107216459E-03;
2.056250000000000E+09;-2.100556505708944E-01;-8.142457790063583E-01;-8.688787425565331E-02;-8.387806432222554E-01;6.638030593908953E-04;-1.183930686174619E-03;
2.057500000000000E+09;-2.571476738130877E-01;-8.006850341095522E-01;-1.359458966924364E-01;-8.319216123255583E-01;5.885725441613115E-04;-1.169289531873403E-03;
2.058750000000000E+09;-3.035117635285549E-01;-7.844096231586205E-01;-1.843194536891967E-01;-8.226093984462891E-01;5.620374471239374E-04;-1.203946490846472E-03;
2.060000000000000E+09;-3.485819563025986E-01;-7.657641064772075E-01;-2.320279322838505E-01;-8.101136755346482E-01;4.995920321568379E-04;-1.229771829746007E-03;
2.061250000000000E+09;-3.924423328440850E-01;-7.443415014718128E-01;-2.790939251368473E-01;-7.952903807098947E-01;4.458938373464046E-04;-1.228043338995539E-03;
2.062500000000000E+09;-4.344641077934803E-01;-7.205763158869078E-01;-3.252284141461694E-01;-7.777035611823724E-01;3.680196809259388E-04;-1.257367824732359E-03;
2.063750000000000E+09;-4.755354203904866E-01;-6.944886020451579E-01;-3.702239672292311E-01;-7.575568082135182E-01;3.408496641622465E-04;-1.313653053464320E-03;
2.065000000000000E+09;-5.146297490291664E-01;-6.661925872956994E-01;-4.136479260783878E-01;-7.343544854459120E-01;2.712444521999699E-04;-1.331556768840761E-03;
2.066250000000000E+09;-5.522316760681188E-01;-6.355810730857029E-01;-4.558452060975858E-01;-7.091148575182419E-01;2.011102462566394E-04;-1.326211489022338E-03;
2.067500000000000E+09;-5.878097339269576E-01;-6.029479255182266E-01;-4.965278384633264E-01;-6.815519985912257E-01;1.219904172274719E-04;-1.331246970060613E-03;
2.068750000000000E+09;-6.215697759457195E-01;-5.684625399155806E-01;-5.353742450916302E-01;-6.513268670279617E-01;3.937372054739357E-05;-1.370419656237556E-03;
2.070000000000000E+09;-6.534531450288332E-01;-5.319710458034154E-01;-5.723925974707311E-01;-6.193198680100037E-01;-1.534512760620976E-05;-1.364050053962630E-03;
2.071250000000000E+09;-6.829994369205836E-01;-4.939783581040642E-01;-6.073869107293304E-01;-5.851429040784882E-01;-7.076584874314883E-05;-1.337546585055849E-03;
2.072500000000000E+09;-7.103531096248853E-01;-4.540948816248525E-01;-6.405077128361383E-01;-5.490277713999476E-01;-1.755303611821873E-04;-1.354575834373027E-03;
2.073750000000000E+09;-7.350593832836360E-01;-4.130068954479414E-01;-6.713951785381490E-01;-5.110566790383606E-01;-2.484996265947123E-04;-1.365438319094753E-03;
2.075000000000000E+09;-7.578856651554959E-01;-3.703720469788691E-01;-6.997360773067558E-01;-4.715929398794536E-01;-3.203525639194721E-04;-1.348539541327040E-03;
2.076250000000000E+09;-7.776773027409409E-01;-3.267416291026199E-01;-7.261174924351921E-01;-4.302095007048345E-01;-4.113388049220583E-04;-1.311935084151192E-03;
2.077500000000000E+09;-7.954302867535978E-01;-2.822811217594208E-01;-7.497177721862964E-01;-3.877641078074657E-01;-4.908608044559037E-04;-1.258227319147331E-03;
2.078750000000000E+09;-8.104446931480832E-01;-2.367671630054058E-01;-7.711474517438313E-01;-3.440204791266951E-01;-5.262891527962922E-04;-1.237536772785484E-03;
2.080000000000000E+09;-8.227157574197294E-01;-1.904449084384737E-01;-7.899301676546520E-01;-2.992221529524846E-01;-5.682801462679727E-04;-1.177007832299023E-03;
2.081250000000000E+09;-8.326256278190864E-01;-1.437269267757702E-01;-8.057961131302199E-01;-2.534570468994546E-01;-5.910429302879455E-04;-1.178402888604233E-03;
2.082500000000000E+09;-8.396269757281917E-01;-9.704604260024759E-02;-8.192079166923477E-01;-2.067977706712553E-01;-6.356425717684600E-04;-1.170694800630600E-03;
2.083750000000000E+09;-8.440018310636773E-01;-4.963238608011313E-02;-8.302171954540042E-01;-1.597792133512725E-01;-7.189054921798215E-04;-1.160516197223863E-03;
2.085000000000000E+09;-8.456624329892634E-01;-2.324985256252751E-03;-8.379899762907767E-01;-1.121017430291565E-01;-7.667088492146086E-04;-1.139915620848097E-03;
2.086250000000000E+09;-8.449109621470596E-01;4.479197724028713E-02;-8.433016791800981E-01;-6.432693611045238E-02;-8.186747824356152E-04;-1.100462421496750E-03;
2.087500000000000E+09;-8.413643879162450E-01;9.197169946616239E-02;-8.459174355489115E-01;-1.641818233156286E-02;-9.240381512178226E-04;-1.119330724965298E-03;
2.088750000000000E+09;-8.352776580668689E-01;1.386215231963082E-01;-8.456749249093440E-01;3.145220544621354E-02;-9.637923538866506E-04;-1.082754160487294E-03;
2.090000000000000E+09;-8.266217458329724E-01;1.850814084643296E-01;-8.429991007259116E-01;7.914506892636625E-02;-1.089144779249655E-03;-1.065181621941704E-03;
2.091250000000000E+09;-8.154180394416017E-01;2.307420196336221E-01;-8.377686299636554E-01;1.266387230639314E-01;-1.163855903274835E-03;-9.920157906047865E-04;
2.092500000000000E+09;-8.017815515471054E-01;2.756602206450049E-01;-8.292927495629885E-01;1.736928138391496E-01;-1.233033652215804E-03;-9.505647040876289E-04;
2.093750000000000E+09;-7.853073838136911E-01;3.197664541747468E-01;-8.187729713466039E-01;2.199421515105889E-01;-1.322370595417296E-03;-8.710452870372710E-04;
2.095000000000000E+09;-7.669926157225410E-01;3.627916034852592E-01;-8.055135386683947E-01;2.653451570439030E-01;-1.405701862663825E-03;-7.778988039515898E-04;
2.096250000000000E+09;-7.460770291090223E-01;4.046443376875107E-01;-7.898043721528791E-01;3.099648056369287E-01;-1.445141626347424E-03;-6.808013310475464E-04;
2.097500000000000E+09;-7.228402696392584E-01;4.452464844890842E-01;-7.715212230929686E-01;3.535913278957999E-01;-1.497318673548276E-03;-5.834227156724972E-04;
2.098750000000000E+09;-6.976423878911896E-01;4.846255291838990E-01;-7.511593762648957E-01;3.959745166742092E-01;-1.532578052356415E-03;-4.770553001308753E-04;
2.100000000000000E+09;-6.703181779042240E-01;5.222754939636719E-01;-7.285342794823823E-01;4.371080722878604E-01;-1.523098977175743E-03;-3.643123572897247E-04;
2.101250000000000E+09;-6.409832472436352E-01;5.581281329491388E-01;-7.034664284499851E-01;4.770595222870375E-01;-1.569101972890903E-03;-2.774338892668608E-04;
2.102500000000000E+09;-6.101424361697444E-01;5.926087291097314E-01;-6.763578185750004E-01;5.153295411471611E-01;-1.583350069932320E-03;-1.902690607979194E-04;
2.103750000000000E+09;-5.771254945032562E-01;6.251816379210012E-01;-6.472394758106921E-01;5.520373786769729E-01;-1.576577919370041E-03;-1.113437446319384E-04;
2.105000000000000E+09;-5.425972576766394E-01;6.559311315728696E-01;-6.161546953996659E-01;5.872844548719489E-01;-1.584913688506432E-03;-2.690145703816374E-05;
2.106250000000000E+09;-5.065036176021568E-01;6.848017637858825E-01;-5.833464579997506E-01;6.204903846567490E-01;-1.565402201316434E-03;7.357611905117147E-05;
2.107500000000000E+09;-4.688400306043906E-01;7.113690598779203E-01;-5.488109502349008E-01;6.516783727068318E-01;-1.601304010425049E-03;2.045829594688642E-04;
2.108750000000000E+09;-4.298057058057298E-01;7.360716093452073E-01;-5.124843813861956E-01;6.809979763736376E-01;-1.560337615779770E-03;2.361089897638625E-04;
2.110000000000000E+09;-3.897742126561673E-01;7.585153180882627E-01;-4.750507735016757E-01;7.082936358227738E-01;-1.587130672751527E-03;2.835548846669131E-04;
2.111250000000000E+09;-3.482141139258931E-01;7.788176560093983E-01;-4.358640310055600E-01;7.332653469680017E-01;-1.550510624636177E-03;4.379964156118576E-04;
2.112500000000000E+09;-3.060597485813394E-01;7.966824676152796E-01;-3.956835500988727E-01;7.561518544026958E-01;-1.528035457401610E-03;5.217464163367662E-04;
2.113750000000000E+09;-2.630544408320620E-01;8.123231237673200E-01;-3.543312683891595E-01;7.769222439535648E-01;-1.447336909946642E-03;6.043457314142390E-04;
2.115000000000000E+09;-2.190701848659732E-01;8.256463628942406E-01;-3.119647099604504E-01;7.950998330937800E-01;-1.432746009810258E-03;7.330842336081277E-04;
2.116250000000000E+09;-1.746797588097484E-01;8.364368976107478E-01;-2.689948105943560E-01;8.110812699174232E-01;-1.353711764735003E-03;8.050817435203686E-04;
2.117500000000000E+09;-1.296882411214086E-01;8.448773958687097E-01;-2.249565693427857E-01;8.245370415432602E-01;-1.305819926776221E-03;8.955039367985840E-04;
2.118750000000000E+09;-8.447872419994906E-02;8.509314387239696E-01;-1.806637092443164E-01;8.356365520915279E-01;-1.244143666590334E-03;9.499918240328665E-04;
2.120000000000000E+09;-3.889808434003207E-02;8.544788817597903E-01;-1.357613327788758E-01;8.445884974195952E-01;-1.159006255140258E-03;9.831072246651972E-04;
2.121250000000000E+09;6.756249678800916E-03;8.555261999490839E-01;-9.029960700037999E-02;8.509114958219036E-01;-1.122040523002874E-03;1.007557374061300E-03;
2.122500000000000E+09;5.258391909293581E-02;8.542511031579925E-01;-4.465029085343037E-02;8.548945380069574E-01;-1.008114199299962E-03;1.073620181328688E-03;
2.123750000000000E+09;9.837681500728347E-02;8.505190923118842E-01;8.875382957831740E-04;8.562947298939348E-01;-9.759869628853578E-04;1.118740993558556E-03;
2.125000000000000E+09;1.435152368378306E-01;8.442936800141371E-01;4.653129594980445E-02;8.552259074113536E-01;-9.316348706260973E-04;1.142844046322523E-03;
2.126250000000000E+09;1.884095437065886E-01;8.357809417257184E-01;9.192837959533698E-02;8.518894674915048E-01;-8.945282034485817E-04;1.162903420349525E-03;
2.127500000000000E+09;2.327335280153925E-01;8.246898302301022E-01;1.371578417015938E-01;8.461097818665396E-01;-8.474626582161177E-04;1.245450498999335E-03;
2.128750000000000E+09;2.762822222175685E-01;8.112998928827753E-01;1.818089126002032E-01;8.378826995104280E-01;-7.953793177362208E-04;1.296473064841323E-03;
2.130000000000000E+09;3.190661817297551E-01;7.957416007735491E-01;2.261032156278036E-01;8.272389813844391E-01;-7.261635703258542E-04;1.336167685803435E-03;
2.131250000000000E+09;3.609018459911560E-01;7.780721677057582E-01;2.695604726277115E-01;8.145613155751767E-01;-6.631381607198908E-04;1.377547208648504E-03;
2.132500000000000E+09;4.017889852472103E-01;7.578716400241403E-01;3.120917034154228E-01;7.991337271203383E-01;-6.065443095091000E-04;1.390223387982029E-03;
2.133750000000000E+09;4.415486193332655E-01;7.356171834830109E-01;3.538884979433741E-01;7.816940165708866E-01;-5.219444865694354E-04;1.440729313613849E-03;
2.135000000000000E+09;4.800462093941337E-01;7.112108980026499E-01;3.948317499048420E-01;7.621659204936511E-01;-4.560926293018392E-04;1.518028506806511E-03;
2.136250000000000E+09;5.170623061401388E-01;6.848090537683023E-01;4.345481920357989E-01;7.402437776253958E-01;-3.916199458188321E-04;1.537712577134837E-03;
2.137500000000000E+09;5.524996372569424E-01;6.565817559719289E-01;4.728765370596118E-01;7.165574160417262E-01;-3.163730918995554E-04;1.552595923013389E-03;
2.138750000000000E+09;5.865420519163566E-01;6.264113659525089E-01;5.101214428354942E-01;6.906848390861129E-01;-2.327866454049602E-04;1.554077575299825E-03;
2.140000000000000E+09;6.187048337691806E-01;5.945696385698581E-01;5.458849269341620E-01;6.631502089781253E-01;-1.610229632309900E-04;1.599174352091060E-03;
2.141250000000000E+09;6.495584160044211E-01;5.610330654806199E-01;5.800478198227280E-01;6.334372195074471E-01;-4.753549368513529E-05;1.611893701942509E-03;
2.142500000000000E+09;6.787147219608146E-01;5.258371181759639E-01;6.124252805074631E-01;6.023418831685160E-01;2.854232596376112E-05;1.602563567147593E-03;
2.143750000000000E+09;7.057481107569874E-01;4.888871703078324E-01;6.434355044259479E-01;5.691388369601044E-01;1.106668434009583E-04;1.635789334524533E-03;
2.145000000000000E+09;7.306224843076790E-01;4.507842443700545E-01;6.724043163438260E-01;5.347936547050693E-01;2.095261546368803E-04;1.665415228207549E-03;
2.146250000000000E+09;7.535707793110746E-01;4.114655270548243E-01;6.997751748516456E-01;4.988319847195447E-01;2.993258427406080E-04;1.675102544835665E-03;
2.147500000000000E+09;7.744754769172344E-01;3.707761961073781E-01;7.250659039056424E-01;4.613503306012198E-01;4.384957587177648E-04;1.671399498944389E-03;
2.148750000000000E+09;7.929714830381150E-01;3.289840006628184E-01;7.483070520815329E-01;4.225170363932847E-01;5.574743420537026E-04;1.606549206864312E-03;
2.150000000000000E+09;8.093850525358188E-01;2.863708404181503E-01;7.695722132664964E-01;3.824698852484291E-01;6.908901854273146E-04;1.542852585305835E-03;
2.151250000000000E+09;8.229882225520054E-01;2.431476997169021E-01;7.886151300605171E-01;3.414708460632148E-01;7.427645495844891E-04;1.482168241436068E-03;
2.152500000000000E+09;8.348523827586107E-01;1.990188562662550E-01;8.055461973341426E-01;2.994236852750859E-01;8.387272246667452E-04;1.438442886666853E-03;
2.153750000000000E+09;8.440387618310590E-01;1.543527373644482E-01;8.200358391309098E-01;2.563137431979157E-01;8.718502700007076E-04;1.279121124645830E-03;
2.155000000000000E+09;8.511047766927573E-01;1.091287447561060E-01;8.322020971821253E-01;2.128178347141895E-01;9.074980051030001E-04;1.295453323061794E-03;
2.156250000000000E+09;8.553826460843528E-01;6.352559265994658E-02;8.422608125748323E-01;1.686522997323078E-01;9.818615178647245E-04;1.225404163102978E-03;
