# Version 1.00
#
freq[Hz];db:Trc1_S11;ang:Trc1_S11;db:Trc2_S22;ang:Trc2_S22;db:Trc3_S21;ang:Trc3_S21;
2.000000000000000E+09;-1.478721297604195E+00;1.344683299175829E+02;-1.440785911338138E+00;5.554742271063129E+01;-5.936552011106046E+01;1.572984478752157E+02;
2.001250000000000E+09;-1.476287444546273E+00;1.312633367699143E+02;-1.438941601237358E+00;5.231520209667201E+01;-5.905549727278195E+01;1.549694885627551E+02;
2.002500000000000E+09;-1.473529946370016E+00;1.280638638214362E+02;-1.439877382040170E+00;4.906995287039601E+01;-5.912800512140223E+01;1.530679777482678E+02;
2.003750000000000E+09;-1.472974362624934E+00;1.248823266483144E+02;-1.439454885692878E+00;4.583468933888638E+01;-5.917372055690272E+01;1.513465556930178E+02;
2.005000000000000E+09;-1.470730962365332E+00;1.217092063088258E+02;-1.439205297996695E+00;4.259698476050542E+01;-5.878965745497013E+01;1.482533025271599E+02;
2.006250000000000E+09;-1.467540852291927E+00;1.185215593470570E+02;-1.438814897970829E+00;3.936570313896348E+01;-5.867324124724024E+01;1.469404552425478E+02;
2.007500000000000E+09;-1.466999344785341E+00;1.153530803416286E+02;-1.440260952088702E+00;3.611589323924653E+01;-5.847092397797023E+01;1.426482294584530E+02;
2.008750000000000E+09;-1.463967284640322E+00;1.121780387438672E+02;-1.440220302632881E+00;3.287379975803423E+01;-5.829622623994352E+01;1.404064259170617E+02;
2.010000000000000E+09;-1.462034690568385E+00;1.090153678003264E+02;-1.440047735263241E+00;2.962165190098889E+01;-5.794821953862921E+01;1.367026648024307E+02;
2.011250000000000E+09;-1.459579839175984E+00;1.058538215971919E+02;-1.440093491951105E+00;2.636131951761767E+01;-5.780165114700881E+01;1.341660218080643E+02;
2.012500000000000E+09;-1.457027617442789E+00;1.026815243869091E+02;-1.441607182084038E+00;2.310137049484350E+01;-5.761021869608663E+01;1.291586073977808E+02;
2.013750000000000E+09;-1.454998763412605E+00;9.952041699881026E+01;-1.442097164986102E+00;1.982675107246469E+01;-5.746444940833064E+01;1.267069828392851E+02;
2.015000000000000E+09;-1.453892034257234E+00;9.637369164283486E+01;-1.443953857025540E+00;1.654210489351756E+01;-5.748397580091967E+01;1.222504347905613E+02;
2.016250000000000E+09;-1.452152931964235E+00;9.320909790412409E+01;-1.443224123994085E+00;1.326253955069109E+01;-5.737074816021081E+01;1.196827152827922E+02;
2.017500000000000E+09;-1.448923112864362E+00;9.005093643193742E+01;-1.446795218908482E+00;9.983679760711247E+00;-5.719203193393042E+01;1.169722168069021E+02;
2.018750000000000E+09;-1.447576796041224E+00;8.690052097901781E+01;-1.447594821028013E+00;6.685719389299734E+00;-5.702490599004648E+01;1.135599522248892E+02;
2.020000000000000E+09;-1.445982281315931E+00;8.374018558279754E+01;-1.449513649214947E+00;3.400660730717833E+00;-5.682140512308254E+01;1.096027952193674E+02;
2.021250000000000E+09;-1.444247054302146E+00;8.059118585944515E+01;-1.450393904029809E+00;1.186722224053765E-01;-5.668227050057177E+01;1.056754830612827E+02;
2.022500000000000E+09;-1.444014497152454E+00;7.745605008317372E+01;-1.451675320132770E+00;-3.187153207468163E+00;-5.657020612866877E+01;1.023680806243957E+02;
2.023750000000000E+09;-1.441605542369810E+00;7.432077084228543E+01;-1.452069121467598E+00;-6.475691588239996E+00;-5.652947173829232E+01;9.827537438804922E+01;
2.025000000000000E+09;-1.441277036972927E+00;7.116390755483290E+01;-1.453767369527285E+00;-9.787834405298950E+00;-5.642070320671212E+01;9.365804388502572E+01;
2.026250000000000E+09;-1.439469295376422E+00;6.802359111302555E+01;-1.455524376769144E+00;-1.308274156682636E+01;-5.631305050135958E+01;8.935544533713332E+01;
2.027500000000000E+09;-1.437538821474124E+00;6.487178368788743E+01;-1.455993750768735E+00;-1.640270169663313E+01;-5.630943747659334E+01;8.663910222091921E+01;
2.028750000000000E+09;-1.435066197928420E+00;6.172941135539669E+01;-1.458660729244930E+00;-1.971492902495386E+01;-5.625015833074400E+01;8.265219888835018E+01;
2.030000000000000E+09;-1.434955121884421E+00;5.858443888744495E+01;-1.461098465282982E+00;-2.305252068861377E+01;-5.606635641256324E+01;7.839339620746209E+01;
2.031250000000000E+09;-1.434625457598950E+00;5.542949746650912E+01;-1.461942634235575E+00;-2.637708707513072E+01;-5.616585274280283E+01;7.489379360560402E+01;
2.032500000000000E+09;-1.432531712040438E+00;5.226958675877162E+01;-1.464225240935023E+00;-2.970683059750011E+01;-5.621850454166511E+01;7.142681305488456E+01;
2.033750000000000E+09;-1.432450520069949E+00;4.911046665217483E+01;-1.468353042184509E+00;-3.302824378056467E+01;-5.609522029338362E+01;6.821452624707607E+01;
2.035000000000000E+09;-1.430621391467193E+00;4.594632032416092E+01;-1.469450238451796E+00;-3.637283261653237E+01;-5.606494327975945E+01;6.317670981734559E+01;
2.036250000000000E+09;-1.430278827825070E+00;4.279325193235472E+01;-1.472739814858540E+00;-3.973274602597994E+01;-5.613275105057202E+01;5.952977129000581E+01;
2.037500000000000E+09;-1.429734210907445E+00;3.962139479791612E+01;-1.476064554954366E+00;-4.307196419117157E+01;-5.622840017373917E+01;5.644185451975925E+01;
2.038750000000000E+09;-1.428735014222074E+00;3.645456399600265E+01;-1.478746345942059E+00;-4.642658799428202E+01;-5.626311079634923E+01;5.355856234847826E+01;
2.040000000000000E+09;-1.428339383764226E+00;3.329187044634237E+01;-1.481545732801876E+00;-4.977132570718224E+01;-5.619574173205839E+01;4.946370550532123E+01;
2.041250000000000E+09;-1.428931520668358E+00;3.013324192339502E+01;-1.483036285642982E+00;-5.314383990599351E+01;-5.634391652425389E+01;4.649652914803944E+01;
2.042500000000000E+09;-1.428585173998069E+00;2.698182407560780E+01;-1.482458950867600E+00;-5.649672752191727E+01;-5.632432008432470E+01;4.225262931110170E+01;
2.043750000000000E+09;-1.429647633178406E+00;2.381014346781026E+01;-1.483582920245523E+00;-5.985257768172069E+01;-5.636658437664256E+01;3.942256561744517E+01;
2.045000000000000E+09;-1.431421892116175E+00;2.064792873164699E+01;-1.484443229372878E+00;-6.322205757914474E+01;-5.625707671927294E+01;3.542165743725563E+01;
2.046250000000000E+09;-1.430735473632677E+00;1.748069120571390E+01;-1.488196462528732E+00;-6.660155152114383E+01;-5.627201142934307E+01;3.214094714699781E+01;
2.047500000000000E+09;-1.432233459400304E+00;1.431091388839016E+01;-1.489263130577339E+00;-6.996696005300049E+01;-5.643226719545358E+01;2.852774114408773E+01;
2.048750000000000E+09;-1.431075117413147E+00;1.113113556797888E+01;-1.490883511552300E+00;-7.333363468064388E+01;-5.640197531164632E+01;2.640887321619153E+01;
2.050000000000000E+09;-1.431873980772963E+00;7.953583389460474E+00;-1.494467417832592E+00;-7.670022862105701E+01;-5.640369073403854E+01;2.249517547938233E+01;
2.051250000000000E+09;-1.432429490896169E+00;4.772990218386784E+00;-1.497402100877720E+00;-8.008902841873521E+01;-5.644659118211254E+01;1.958599316092608E+01;
2.052500000000000E+09;-1.431513743402060E+00;1.581567232017516E+00;-1.496172732101861E+00;-8.344743470215823E+01;-5.650914163726418E+01;1.702600365426458E+01;
2.053750000000000E+09;-1.434646150884130E+00;-1.613394516167785E+00;-1.500950495833539E+00;-8.682950186545459E+01;-5.640333581697490E+01;1.444234901274292E+01;
2.055000000000000E+09;-1.435175463501410E+00;-4.803846545833960E+00;-1.500097712885424E+00;-9.020819693225987E+01;-5.674366203266732E+01;1.145576446416206E+01;
2.056250000000000E+09;-1.436877200574344E+00;-8.008588655048651E+00;-1.501081217501081E+00;-9.358515808660155E+01;-5.654193255130846E+01;7.893209855530331E+00;
2.057500000000000E+09;-1.435101047176536E+00;-1.119543759299069E+01;-1.501527784558451E+00;-9.696022372148391E+01;-5.689484658980959E+01;5.491384389565152E+00;
2.058750000000000E+09;-1.439967054438034E+00;-1.440825010247441E+01;-1.505930871636790E+00;-1.003278700838577E+02;-5.662537632923834E+01;1.833236048518908E+00;
2.060000000000000E+09;-1.441564969617449E+00;-1.762777849591840E+01;-1.507124473074416E+00;-1.036956742010850E+02;-5.686587643249433E+01;4.486752401627505E-01;
2.061250000000000E+09;-1.439393101459368E+00;-2.081180710410567E+01;-1.503487396010388E+00;-1.070621744101449E+02;-5.676262067427510E+01;-7.830544672233001E-01;
2.062500000000000E+09;-1.439976510083843E+00;-2.401246010884786E+01;-1.505586390043380E+00;-1.104415200219144E+02;-5.669267597297538E+01;-2.969221790980558E+00;
2.063750000000000E+09;-1.441387380949494E+00;-2.721192833012293E+01;-1.506377728376197E+00;-1.138110503446334E+02;-5.668272099450645E+01;-5.637319895151276E+00;
2.065000000000000E+09;-1.439185139268611E+00;-3.041672037297269E+01;-1.505658597648025E+00;-1.171637836950328E+02;-5.628478231520910E+01;-6.602707320022790E+00;
2.066250000000000E+09;-1.440332317782991E+00;-3.363941929128623E+01;-1.503713820603084E+00;-1.205296831198122E+02;-5.614922870412971E+01;-9.528672292104638E+00;
2.067500000000000E+09;-1.439032497784520E+00;-3.685624834286462E+01;-1.500054146651419E+00;-1.238873967504245E+02;-5.580708845403905E+01;-1.270802905425980E+01;
2.068750000000000E+09;-1.438352448165490E+00;-4.007647701925163E+01;-1.499023519727153E+00;-1.272328232889189E+02;-5.565307127988193E+01;-1.639077790961306E+01;
2.070000000000000E+09;-1.440909578141063E+00;-4.328825837810083E+01;-1.503711091298845E+00;-1.305880206731498E+02;-5.559434702560263E+01;-2.077922545896070E+01;
2.071250000000000E+09;-1.439640525808262E+00;-4.654594229030396E+01;-1.500467599273428E+00;-1.339500244730023E+02;-5.541788651793045E+01;-2.503734164246300E+01;
2.072500000000000E+09;-1.439671606647670E+00;-4.975547582786160E+01;-1.499497033315389E+00;-1.372824439299671E+02;-5.550616738088471E+01;-2.950992879788017E+01;
2.073750000000000E+09;-1.442283948679721E+00;-5.299242043205886E+01;-1.498229305014232E+00;-1.406152111305178E+02;-5.536788464048379E+01;-3.347632357438967E+01;
2.075000000000000E+09;-1.442808852654605E+00;-5.622461757065862E+01;-1.498131944318516E+00;-1.439423993226972E+02;-5.542212486367231E+01;-3.714254951971687E+01;
2.076250000000000E+09;-1.444356349932321E+00;-5.945515357083902E+01;-1.494562358297765E+00;-1.472723982424100E+02;-5.551219222300283E+01;-4.020819454499855E+01;
2.077500000000000E+09;-1.444326480046897E+00;-6.268622462620175E+01;-1.495054605660000E+00;-1.505985167613197E+02;-5.574920586370737E+01;-4.242214477643542E+01;
2.078750000000000E+09;-1.445131539841093E+00;-6.592311557187357E+01;-1.490472695189955E+00;-1.539102326796645E+02;-5.557052944573435E+01;-4.577313822283138E+01;
2.080000000000000E+09;-1.443500130480863E+00;-6.915987049750009E+01;-1.490800607272921E+00;-1.572308293487850E+02;-5.589918537313208E+01;-4.821096741694954E+01;
2.081250000000000E+09;-1.444043300155522E+00;-7.238349771586824E+01;-1.487144509790049E+00;-1.605400257569211E+02;-5.592582111759386E+01;-4.969453204156532E+01;
2.082500000000000E+09;-1.443998908205218E+00;-7.559344893650669E+01;-1.485278239496526E+00;-1.638376745482030E+02;-5.580341649282157E+01;-5.312285780186733E+01;
2.083750000000000E+09;-1.441441848975950E+00;-7.882290470593418E+01;-1.483473073839131E+00;-1.671323900933806E+02;-5.563047376267870E+01;-5.515934076308626E+01;
2.085000000000000E+09;-1.442018393476085E+00;-8.204283138924998E+01;-1.481494993069744E+00;-1.704197946047020E+02;-5.560103541865091E+01;-5.838680672618090E+01;
2.086250000000000E+09;-1.442461984710490E+00;-8.525990161900582E+01;-1.478361822370314E+00;-1.737109124341762E+02;-5.519952646144021E+01;-6.119890166088918E+01;
2.087500000000000E+09;-1.440894217449341E+00;-8.849160661947532E+01;-1.475389090088959E+00;-1.769773223051668E+02;-5.539507623224865E+01;-6.368528685215220E+01;
2.088750000000000E+09;-1.441947565101723E+00;-9.170269806956665E+01;-1.472220510761814E+00;1.797619704889188E+02;-5.519843997571374E+01;-6.654792434235496E+01;
2.090000000000000E+09;-1.439955619558353E+00;-9.492625435493242E+01;-1.467620502477420E+00;1.765089505033256E+02;-5.478154583770858E+01;-6.988230310589842E+01;
2.091250000000000E+09;-1.440314762298068E+00;-9.816436353667940E+01;-1.464287425572069E+00;1.732499764944472E+02;-5.470800890919516E+01;-7.299336372162601E+01;
2.092500000000000E+09;-1.439726386871691E+00;-1.013899724202114E+02;-1.461082918205865E+00;1.700262463693578E+02;-5.498793150063282E+01;-7.712670353174944E+01;
2.093750000000000E+09;-1.438810618136931E+00;-1.046033864564479E+02;-1.458380278510868E+00;1.667806953935016E+02;-5.458358623711680E+01;-7.982640252671287E+01;
2.095000000000000E+09;-1.438754250627592E+00;-1.078332253346182E+02;-1.453980003586345E+00;1.635629447449645E+02;-5.453659540403929E+01;-8.417755470670006E+01;
2.096250000000000E+09;-1.438295850091562E+00;-1.110470553180099E+02;-1.449241987825077E+00;1.603496715353192E+02;-5.439338481695397E+01;-8.888982764530404E+01;
2.097500000000000E+09;-1.437349681796075E+00;-1.142686577724778E+02;-1.447159680295830E+00;1.571548854264598E+02;-5.434832374701526E+01;-9.145655116641574E+01;
2.098750000000000E+09;-1.436137102743808E+00;-1.174868654438191E+02;-1.442486023924839E+00;1.539625373931260E+02;-5.437751522949432E+01;-9.556121630561046E+01;
2.100000000000000E+09;-1.435084131265021E+00;-1.207097110570121E+02;-1.439435180552284E+00;1.507717503386167E+02;-5.443013387202968E+01;-9.881971920805657E+01;
2.101250000000000E+09;-1.434736978750338E+00;-1.238976631090588E+02;-1.433676497748161E+00;1.475875725053156E+02;-5.434078795713287E+01;-1.022594107339616E+02;
2.102500000000000E+09;-1.428152701879878E+00;-1.270889142057200E+02;-1.429364030276404E+00;1.444004915801711E+02;-5.416137785052235E+01;-1.052803337316303E+02;
2.103750000000000E+09;-1.427477083000201E+00;-1.302830655551613E+02;-1.426106829260603E+00;1.412407703513580E+02;-5.432684066542501E+01;-1.095802437500999E+02;
2.105000000000000E+09;-1.424868662173351E+00;-1.334769877749159E+02;-1.421736331143501E+00;1.380590647120218E+02;-5.429051848254191E+01;-1.125144770765064E+02;
2.106250000000000E+09;-1.424394637175377E+00;-1.366619554944503E+02;-1.417399630871852E+00;1.349020125714356E+02;-5.434553179883786E+01;-1.159289079923552E+02;
2.107500000000000E+09;-1.421707543388366E+00;-1.398464908969260E+02;-1.412064763224083E+00;1.317549851583638E+02;-5.445603927490579E+01;-1.185981277004287E+02;
2.108750000000000E+09;-1.419259733996637E+00;-1.430068135097594E+02;-1.408886010875507E+00;1.286122750779880E+02;-5.438100516992984E+01;-1.211942593984346E+02;
2.110000000000000E+09;-1.418685316198930E+00;-1.461801263259780E+02;-1.402435632091754E+00;1.254782257246232E+02;-5.426164842563474E+01;-1.254538287698715E+02;
2.111250000000000E+09;-1.415136126518441E+00;-1.493518686076531E+02;-1.398728351707949E+00;1.223475697462423E+02;-5.419248142029492E+01;-1.279975170717279E+02;
2.112500000000000E+09;-1.413563209854972E+00;-1.525099014241000E+02;-1.395166257895038E+00;1.192373581823206E+02;-5.433072964297560E+01;-1.317901900707218E+02;
2.113750000000000E+09;-1.410247559427300E+00;-1.556509986698985E+02;-1.392517815462097E+00;1.161005117828286E+02;-5.433118683179170E+01;-1.341570355593383E+02;
2.115000000000000E+09;-1.408447916847398E+00;-1.587966425494318E+02;-1.386033075796700E+00;1.129965586879899E+02;-5.411768645415283E+01;-1.368609954222911E+02;
2.116250000000000E+09;-1.405567281234111E+00;-1.619336892094656E+02;-1.383916392357798E+00;1.098834556390528E+02;-5.408821302658137E+01;-1.415415672109013E+02;
2.117500000000000E+09;-1.403302252008874E+00;-1.650660436926513E+02;-1.378700230398588E+00;1.067878223138751E+02;-5.389606891079184E+01;-1.455393826653039E+02;
2.118750000000000E+09;-1.399895112500275E+00;-1.682065934000829E+02;-1.374633108742240E+00;1.036982122758314E+02;-5.417435454377162E+01;-1.480594552972497E+02;
2.120000000000000E+09;-1.396086405634468E+00;-1.713108615565497E+02;-1.372201700842044E+00;1.006144338640017E+02;-5.390965736721571E+01;-1.520349200961681E+02;
2.121250000000000E+09;-1.393835689064458E+00;-1.744349899940676E+02;-1.369021181367207E+00;9.754029590903397E+01;-5.395146401615938E+01;-1.552987377945128E+02;
2.122500000000000E+09;-1.390193300601925E+00;-1.775574817630679E+02;-1.364299001343396E+00;9.446728179533925E+01;-5.384043450125021E+01;-1.592287527055147E+02;
2.123750000000000E+09;-1.388323389912340E+00;1.793332025623645E+02;-1.360592931514139E+00;9.137363117070369E+01;-5.364579647729957E+01;-1.617555913103964E+02;
2.125000000000000E+09;-1.384903289588530E+00;1.762184690417380E+02;-1.357535361234993E+00;8.830906242975345E+01;-5.354837672632827E+01;-1.661516425499904E+02;
2.126250000000000E+09;-1.381159614215177E+00;1.731389428995820E+02;-1.354943059212551E+00;8.525815688967242E+01;-5.353983564380864E+01;-1.715073711200333E+02;
2.127500000000000E+09;-1.380368293529384E+00;1.700376305684074E+02;-1.351252761666518E+00;8.219580330927607E+01;-5.373775167885007E+01;-1.761162107545333E+02;
2.128750000000000E+09;-1.374988224729456E+00;1.669655856966954E+02;-1.348460688413641E+00;7.914249120667493E+01;-5.387710766708464E+01;-1.790099648068899E+02;
2.130000000000000E+09;-1.372088776555571E+00;1.638864104118067E+02;-1.345633804311831E+00;7.608014910998253E+01;-5.425471081508653E+01;1.769522277189984E+02;
2.131250000000000E+09;-1.368915461497626E+00;1.608165020362497E+02;-1.343747896702338E+00;7.304253134154941E+01;-5.431240995437180E+01;1.748905321897505E+02;
2.132500000000000E+09;-1.367812938345685E+00;1.577558710703248E+02;-1.340810322602112E+00;7.000721526951530E+01;-5.457723117068413E+01;1.718559401097200E+02;
2.133750000000000E+09;-1.362787138354264E+00;1.547012835279195E+02;-1.338442553281598E+00;6.696225080447033E+01;-5.448725278325148E+01;1.709772750713699E+02;
2.135000000000000E+09;-1.362212362624423E+00;1.516534618265075E+02;-1.336361272005264E+00;6.393156902711684E+01;-5.419995395437351E+01;1.679482960709954E+02;
2.136250000000000E+09;-1.357099260967423E+00;1.486002176652758E+02;-1.334599673444275E+00;6.089887134567378E+01;-5.425514730913705E+01;1.644305291026273E+02;
2.137500000000000E+09;-1.354401755502580E+00;1.455701463039440E+02;-1.333516927507940E+00;5.785247368939315E+01;-5.432318872326125E+01;1.610502643905059E+02;
2.138750000000000E+09;-1.351837177407151E+00;1.425570307505104E+02;-1.333701138713218E+00;5.481312856281370E+01;-5.431037094964626E+01;1.573710064346133E+02;
2.140000000000000E+09;-1.350129616563402E+00;1.395294282049497E+02;-1.329990401843856E+00;5.179375939527368E+01;-5.432899445703659E+01;1.533700935301313E+02;
2.141250000000000E+09;-1.345575674078421E+00;1.365078125395384E+02;-1.330689044861815E+00;4.876304579528443E+01;-5.425771064102139E+01;1.504813697911832E+02;
2.142500000000000E+09;-1.341784986876577E+00;1.334801737401943E+02;-1.327843124765243E+00;4.574124994665387E+01;-5.441099496484888E+01;1.470860037937862E+02;
2.143750000000000E+09;-1.338550740392954E+00;1.304818007956630E+02;-1.327883518940410E+00;4.271031343817881E+01;-5.440191901981980E+01;1.450264150576081E+02;
2.145000000000000E+09;-1.335603875668878E+00;1.274745907614717E+02;-1.326873687249719E+00;3.969637730927052E+01;-5.455637510520212E+01;1.409062608647181E+02;
2.146250000000000E+09;-1.331864842013254E+00;1.244617993388860E+02;-1.326309832537829E+00;3.667441490587362E+01;-5.457762368994109E+01;1.380328214734546E+02;
2.147500000000000E+09;-1.326177397095553E+00;1.214683962942556E+02;-1.326613642422550E+00;3.364316408375535E+01;-5.459548434418188E+01;1.342008843245503E+02;
2.148750000000000E+09;-1.323423492161837E+00;1.184669303936980E+02;-1.327037343858640E+00;3.062548758670339E+01;-5.470642980049681E+01;1.320201662032422E+02;
2.150000000000000E+09;-1.320489246078175E+00;1.154672035862190E+02;-1.325485513422165E+00;2.759940132978483E+01;-5.512892861097897E+01;1.295524411471421E+02;
2.151250000000000E+09;-1.315720932605452E+00;1.124903473581431E+02;-1.327243858936891E+00;2.457502533530104E+01;-5.491416623581858E+01;1.274637920989241E+02;
2.152500000000000E+09;-1.312440848782905E+00;1.095093086216714E+02;-1.325471147197107E+00;2.154534892284958E+01;-5.500748031120412E+01;1.251042629471429E+02;
2.153750000000000E+09;-1.309494035731877E+00;1.065382752155105E+02;-1.327275600442464E+00;1.850880930295762E+01;-5.484501346628690E+01;1.226541234140932E+02;
