# Version 1.00
#
freq[Hz];db:Trc1_S11;ang:Trc1_S11;db:Trc2_S22;ang:Trc2_S22;db:Trc3_S21;ang:Trc3_S21;
2.000000000000000E+09;-1.477352417355519E+00;1.351701480853404E+02;-1.452600103170036E+00;5.544408498923398E+01;-5.529347441032652E+01;1.287523235098097E+02;
2.001250000000000E+09;-1.476278943761343E+00;1.319754432236655E+02;-1.451449045913368E+00;5.219391128329915E+01;-5.555191973661368E+01;1.240341617130200E+02;
2.002500000000000E+09;-1.473201647430755E+00;1.287863803895926E+02;-1.450690027356863E+00;4.896439066558209E+01;-5.578206658601367E+01;1.212860976496244E+02;
2.003750000000000E+09;-1.470612201296965E+00;1.256007836261721E+02;-1.449796346914999E+00;4.572493128514822E+01;-5.611750619518777E+01;1.171679946357392E+02;
2.005000000000000E+09;-1.468049085375694E+00;1.224121267501159E+02;-1.451267378276704E+00;4.247848326292910E+01;-5.631346739742313E+01;1.132924351519319E+02;
2.006250000000000E+09;-1.465067851318133E+00;1.192375870255602E+02;-1.448586840406950E+00;3.924136075768445E+01;-5.648367224185685E+01;1.106267377472483E+02;
2.007500000000000E+09;-1.463539886435654E+00;1.160573377031470E+02;-1.449322908964504E+00;3.598099245733446E+01;-5.679976485251008E+01;1.070565216154874E+02;
2.008750000000000E+09;-1.460944111286859E+00;1.128910757990749E+02;-1.449216168022298E+00;3.273399816701420E+01;-5.711228385002773E+01;1.032187985018890E+02;
2.010000000000000E+09;-1.458333947759566E+00;1.097222338846729E+02;-1.449453280905065E+00;2.947537987808134E+01;-5.748715983673826E+01;1.010156181574844E+02;
2.011250000000000E+09;-1.457511682432277E+00;1.065656431177832E+02;-1.449751231521306E+00;2.619896255532852E+01;-5.745823806162338E+01;9.771281877391615E+01;
2.012500000000000E+09;-1.456296549349040E+00;1.033987318893373E+02;-1.451942319698940E+00;2.293891788840691E+01;-5.762293579833189E+01;9.544182333288860E+01;
2.013750000000000E+09;-1.453825827601074E+00;1.002401759460295E+02;-1.450662922913788E+00;1.965446920914436E+01;-5.793785675464790E+01;9.139257562095574E+01;
2.015000000000000E+09;-1.450419470678789E+00;9.709696830973100E+01;-1.453015076116204E+00;1.637643984419881E+01;-5.821357663195474E+01;8.718896016670257E+01;
2.016250000000000E+09;-1.449072539075464E+00;9.393115968138605E+01;-1.453585346971018E+00;1.308551203959498E+01;-5.835168309461122E+01;8.401751020376625E+01;
2.017500000000000E+09;-1.448283038698009E+00;9.076956321224293E+01;-1.454365961947470E+00;9.805200597178217E+00;-5.873336583323221E+01;8.161816624448569E+01;
2.018750000000000E+09;-1.446458147941625E+00;8.762954904674417E+01;-1.456595157660223E+00;6.511425526128534E+00;-5.906975164668282E+01;7.879505815400181E+01;
2.020000000000000E+09;-1.443863531764664E+00;8.448398636781968E+01;-1.458571793015909E+00;3.216604586644908E+00;-5.917322231593020E+01;7.575224419954971E+01;
2.021250000000000E+09;-1.442551360910694E+00;8.133257323015933E+01;-1.460879593410887E+00;-6.801067719241075E-02;-5.947851010707642E+01;7.368117488866181E+01;
2.022500000000000E+09;-1.441061611903359E+00;7.818332652226538E+01;-1.459886741587771E+00;-3.373569195211163E+00;-5.950630611815206E+01;7.239167275937272E+01;
2.023750000000000E+09;-1.439448267410735E+00;7.504373041013456E+01;-1.461929171347948E+00;-6.666727504158747E+00;-5.976680765133946E+01;6.833870809256138E+01;
2.025000000000000E+09;-1.437665132119048E+00;7.190711576426050E+01;-1.461898837191219E+00;-9.965248329656593E+00;-5.990210037995005E+01;6.588139489486635E+01;
2.026250000000000E+09;-1.436972011044228E+00;6.875248556513768E+01;-1.465064613432383E+00;-1.329840307156935E+01;-6.000108787260642E+01;6.349205549271595E+01;
2.027500000000000E+09;-1.433894412390562E+00;6.559999217042103E+01;-1.468164579026655E+00;-1.658328064565754E+01;-6.028339632618288E+01;5.991731873799571E+01;
2.028750000000000E+09;-1.434120639296560E+00;6.246083568050137E+01;-1.468564411220039E+00;-1.992132112303592E+01;-6.035277444524074E+01;5.941946189237762E+01;
2.030000000000000E+09;-1.430837342999230E+00;5.930625604697942E+01;-1.470753373070584E+00;-2.323489129651185E+01;-6.071318274280060E+01;5.497688342290312E+01;
2.031250000000000E+09;-1.429305436298494E+00;5.617236043763221E+01;-1.473819451917109E+00;-2.656015762086369E+01;-6.080657799739767E+01;5.060728980581675E+01;
2.032500000000000E+09;-1.427112762107261E+00;5.301452295262308E+01;-1.475629331655747E+00;-2.990879358131493E+01;-6.090620023541149E+01;4.885501028685841E+01;
2.033750000000000E+09;-1.429125061511493E+00;4.985696583537274E+01;-1.476239823885497E+00;-3.323590230845894E+01;-6.060532047288088E+01;4.606752196801339E+01;
2.035000000000000E+09;-1.428051468092527E+00;4.669434759934748E+01;-1.480062888237898E+00;-3.656740543870065E+01;-6.114291130743606E+01;4.268421790870495E+01;
2.036250000000000E+09;-1.427528196075558E+00;4.353941329458058E+01;-1.481434446486270E+00;-3.992249609603656E+01;-6.133492288216495E+01;3.682151618548460E+01;
2.037500000000000E+09;-1.426867595390664E+00;4.038518113174421E+01;-1.484118025392458E+00;-4.326573386115241E+01;-6.114356546748279E+01;3.413438571698615E+01;
2.038750000000000E+09;-1.426647929966325E+00;3.721905685822601E+01;-1.483946391044248E+00;-4.659229779811839E+01;-6.178386813197677E+01;3.015894790172407E+01;
2.040000000000000E+09;-1.427538037986818E+00;3.404545814284756E+01;-1.490640061923352E+00;-4.997210077943289E+01;-6.203967625910720E+01;2.549957652095033E+01;
2.041250000000000E+09;-1.427286524586794E+00;3.088450565214371E+01;-1.490962400227773E+00;-5.331579008700076E+01;-6.252674833458749E+01;2.270309202161669E+01;
2.042500000000000E+09;-1.427335535493155E+00;2.772771663097547E+01;-1.492314959135943E+00;-5.665882500690592E+01;-6.282843837043423E+01;2.038041553166608E+01;
2.043750000000000E+09;-1.428576505350208E+00;2.458562962721077E+01;-1.492563678452520E+00;-6.002319618699713E+01;-6.342183901237419E+01;1.900125767267931E+01;
2.045000000000000E+09;-1.427482973340992E+00;2.141465270722223E+01;-1.495118660317669E+00;-6.338187088544460E+01;-6.341125182377888E+01;1.456721298221783E+01;
2.046250000000000E+09;-1.429755543913734E+00;1.825224664887346E+01;-1.495136939981464E+00;-6.674495100419242E+01;-6.378221347349136E+01;9.694976631499724E+00;
2.047500000000000E+09;-1.428377515854452E+00;1.508955892979961E+01;-1.497756413188561E+00;-7.012420833621914E+01;-6.440486545886168E+01;1.046757746427179E+01;
2.048750000000000E+09;-1.427717774466220E+00;1.191290218299100E+01;-1.499423222515833E+00;-7.349383943474099E+01;-6.446661208129838E+01;4.534465617799334E+00;
2.050000000000000E+09;-1.428155726333265E+00;8.739467313691456E+00;-1.501314501741566E+00;-7.685595440290555E+01;-6.521766247824873E+01;2.756624310549454E+00;
2.051250000000000E+09;-1.429501233553016E+00;5.565641989714573E+00;-1.501889548170412E+00;-8.022859016860995E+01;-6.496440937475481E+01;1.583850266149363E+00;
2.052500000000000E+09;-1.428684880214260E+00;2.379078792363350E+00;-1.504884355607241E+00;-8.359710106916329E+01;-6.496743579231358E+01;-1.717866867233553E+00;
2.053750000000000E+09;-1.431612962241255E+00;-8.248857131576454E-01;-1.507802664520215E+00;-8.695859816453522E+01;-6.599502871314246E+01;-5.227772093567084E+00;
2.055000000000000E+09;-1.431684404777781E+00;-4.016163278857555E+00;-1.508860865192504E+00;-9.034120137653842E+01;-6.580752493065292E+01;-5.387084875081918E+00;
2.056250000000000E+09;-1.433141286397908E+00;-7.208078955965486E+00;-1.509936045962880E+00;-9.371228726781511E+01;-6.578189965094143E+01;-1.169809037690323E+01;
2.057500000000000E+09;-1.435604284161096E+00;-1.039275409851744E+01;-1.511638390731635E+00;-9.705538950879459E+01;-6.593777649467575E+01;-1.022217406548814E+01;
2.058750000000000E+09;-1.437106665979658E+00;-1.360957156518250E+01;-1.512891141090246E+00;-1.004471911887815E+02;-6.645148382149186E+01;-1.418796726972907E+01;
2.060000000000000E+09;-1.435371978001520E+00;-1.681868782866847E+01;-1.512692954583986E+00;-1.038161526846170E+02;-6.664077100165677E+01;-1.491866424945441E+01;
2.061250000000000E+09;-1.435484936415561E+00;-2.000264927744524E+01;-1.511139302101634E+00;-1.071824495451998E+02;-6.672952767806964E+01;-2.393264703033167E+01;
2.062500000000000E+09;-1.435960528497927E+00;-2.319322411786375E+01;-1.511721552011406E+00;-1.105153901875945E+02;-6.777671134182101E+01;-2.457330596436713E+01;
2.063750000000000E+09;-1.438616626414210E+00;-2.640246753062877E+01;-1.511413885379129E+00;-1.138821389293533E+02;-6.771474498835011E+01;-3.541937818318785E+01;
2.065000000000000E+09;-1.436004180461672E+00;-2.960395869193852E+01;-1.511056883787105E+00;-1.172316668599781E+02;-6.825698283215603E+01;-3.747827530312785E+01;
2.066250000000000E+09;-1.437157341240765E+00;-3.281948729886501E+01;-1.511137905659775E+00;-1.205922748741294E+02;-6.838630537986342E+01;-3.940237737419184E+01;
2.067500000000000E+09;-1.436194859627892E+00;-3.602483462143127E+01;-1.509533689427783E+00;-1.239286818891891E+02;-6.944535106889737E+01;-4.599610866103504E+01;
2.068750000000000E+09;-1.438460627738430E+00;-3.925336736913070E+01;-1.507963458829877E+00;-1.272963085124954E+02;-7.015062531888250E+01;-4.515037020859175E+01;
2.070000000000000E+09;-1.436522137054526E+00;-4.246402213577360E+01;-1.508384365094562E+00;-1.306242687322146E+02;-7.162144915705694E+01;-4.995534559311466E+01;
2.071250000000000E+09;-1.440247016177878E+00;-4.568939324511355E+01;-1.508432582832923E+00;-1.339662584173836E+02;-7.149991275660457E+01;-5.383530985228290E+01;
2.072500000000000E+09;-1.439476121527985E+00;-4.892661556971484E+01;-1.505276074356318E+00;-1.373100327874823E+02;-7.090762130809833E+01;-5.769814888463881E+01;
2.073750000000000E+09;-1.439194844994270E+00;-5.214424183140052E+01;-1.503850393887145E+00;-1.406463942075321E+02;-7.286644252918326E+01;-5.233006839395039E+01;
2.075000000000000E+09;-1.440027266185784E+00;-5.536991708067391E+01;-1.501381770028842E+00;-1.439753994581081E+02;-7.406636525495257E+01;-5.026882475524250E+01;
2.076250000000000E+09;-1.440644889374493E+00;-5.859187847566539E+01;-1.499209188320807E+00;-1.472933587586732E+02;-7.298196222698471E+01;-5.812129875508359E+01;
2.077500000000000E+09;-1.442397325640886E+00;-6.183989815224289E+01;-1.498967156203473E+00;-1.506116767786064E+02;-7.237810037580671E+01;-6.385814994379268E+01;
2.078750000000000E+09;-1.441511655698023E+00;-6.506843830360496E+01;-1.497324799059571E+00;-1.539199572144084E+02;-7.345859875162255E+01;-7.868117556532421E+01;
2.080000000000000E+09;-1.443889451753009E+00;-6.830406061349062E+01;-1.496586736606045E+00;-1.572268950716991E+02;-7.365928824015037E+01;-8.052655712537779E+01;
2.081250000000000E+09;-1.443814713151613E+00;-7.153155325272289E+01;-1.494065914944128E+00;-1.605172512956922E+02;-7.434335737583379E+01;-8.945879202057546E+01;
2.082500000000000E+09;-1.443056703714355E+00;-7.474195467881741E+01;-1.488968054750684E+00;-1.638378721027063E+02;-7.459498307961253E+01;-1.085096107119035E+02;
2.083750000000000E+09;-1.441947932843761E+00;-7.796680713955526E+01;-1.488327285393857E+00;-1.671050995092620E+02;-7.921830404267968E+01;-1.072425096549392E+02;
2.085000000000000E+09;-1.441578651289373E+00;-8.116809752984140E+01;-1.483333524437773E+00;-1.703788593081960E+02;-8.016821437837704E+01;-1.287720471828761E+02;
2.086250000000000E+09;-1.438693407345724E+00;-8.438919569505295E+01;-1.482092286799249E+00;-1.736498609149085E+02;-8.074130319274495E+01;-1.414236113620973E+02;
2.087500000000000E+09;-1.439836644362527E+00;-8.761823470312980E+01;-1.477725100870283E+00;-1.769287137433467E+02;-8.230557483545356E+01;1.776353439484351E+02;
2.088750000000000E+09;-1.439063666874687E+00;-9.085125830719973E+01;-1.475170728719817E+00;1.798308841705889E+02;-8.265195081942765E+01;-1.735960218319137E+02;
2.090000000000000E+09;-1.439611535208220E+00;-9.406523458618649E+01;-1.473109425305686E+00;1.765809136310990E+02;-8.191517897614636E+01;1.591675112807317E+02;
2.091250000000000E+09;-1.440472839673855E+00;-9.727522439569981E+01;-1.469895381243859E+00;1.733388954606520E+02;-8.212685885562303E+01;1.310347959607529E+02;
2.092500000000000E+09;-1.437621685915667E+00;-1.005041366168249E+02;-1.464136578103619E+00;1.701060122003009E+02;-7.742955666782066E+01;1.310048804663224E+02;
2.093750000000000E+09;-1.438297636326756E+00;-1.037268312363440E+02;-1.460283697076515E+00;1.668852857244073E+02;-8.029183383834537E+01;1.434492341919235E+02;
2.095000000000000E+09;-1.437439294055626E+00;-1.069387495432498E+02;-1.457900720137717E+00;1.636708343417128E+02;-7.659688641668764E+01;1.151093311379976E+02;
2.096250000000000E+09;-1.435720206238282E+00;-1.101601703295508E+02;-1.453080259379420E+00;1.604649508925559E+02;-7.600920190830533E+01;1.003443569630575E+02;
2.097500000000000E+09;-1.437323290105043E+00;-1.133852114385779E+02;-1.447316243228035E+00;1.572706765883463E+02;-7.540144318348376E+01;1.020285030828347E+02;
2.098750000000000E+09;-1.435260937773466E+00;-1.165801061592613E+02;-1.445030490227611E+00;1.540780267433803E+02;-7.394490901312047E+01;9.818479155094663E+01;
2.100000000000000E+09;-1.434408544417625E+00;-1.197861403318224E+02;-1.442217796706621E+00;1.509032857015299E+02;-7.231555451917177E+01;9.594748267791178E+01;
2.101250000000000E+09;-1.432996520456263E+00;-1.229842395071765E+02;-1.437019557756594E+00;1.477154496284082E+02;-7.281060325594618E+01;9.508563558950482E+01;
2.102500000000000E+09;-1.430666954763107E+00;-1.261816776607891E+02;-1.431190809765951E+00;1.445381349232958E+02;-7.076473952898566E+01;8.369284344033916E+01;
2.103750000000000E+09;-1.430752076444837E+00;-1.293885259424338E+02;-1.426084422017815E+00;1.413699675415900E+02;-7.222565237087377E+01;7.109917543919022E+01;
2.105000000000000E+09;-1.427312930222447E+00;-1.325805216458149E+02;-1.422995432584384E+00;1.382107852161173E+02;-7.072924320680441E+01;6.879723004474288E+01;
2.106250000000000E+09;-1.425066160014145E+00;-1.357460624140995E+02;-1.417958339627688E+00;1.350635881757109E+02;-6.911088613426540E+01;6.000166391445359E+01;
2.107500000000000E+09;-1.422455742679494E+00;-1.389424710163929E+02;-1.415255324920874E+00;1.319041020662009E+02;-7.078051300295294E+01;5.587881192423931E+01;
2.108750000000000E+09;-1.422644436021423E+00;-1.421054372783022E+02;-1.411487147960766E+00;1.287878500536876E+02;-6.949034414966857E+01;5.301056937263083E+01;
2.110000000000000E+09;-1.418345518893573E+00;-1.452767662435285E+02;-1.406269371579813E+00;1.256496930541534E+02;-6.947967862305957E+01;4.908613227573042E+01;
2.111250000000000E+09;-1.417078208322523E+00;-1.484348005091372E+02;-1.400507984062589E+00;1.225287779085209E+02;-7.027038746695156E+01;3.905463800235092E+01;
2.112500000000000E+09;-1.412765242780200E+00;-1.515935065923534E+02;-1.398921660724907E+00;1.193994265984709E+02;-6.858560564438253E+01;3.730383729621750E+01;
2.113750000000000E+09;-1.411336541020755E+00;-1.547569288844873E+02;-1.394507546033195E+00;1.162852279363171E+02;-6.816825165369707E+01;3.756116289179961E+01;
2.115000000000000E+09;-1.408396295569904E+00;-1.578859970680590E+02;-1.389768500962408E+00;1.131811471302043E+02;-6.745357463071335E+01;3.886192169910843E+01;
2.116250000000000E+09;-1.404230537963984E+00;-1.610283772893016E+02;-1.387939761004389E+00;1.100947396649043E+02;-6.687717535306805E+01;1.900189142572219E+01;
2.117500000000000E+09;-1.401846943148373E+00;-1.641749978581709E+02;-1.384179580294444E+00;1.069878813548510E+02;-6.701993780807679E+01;1.718937291948486E+01;
2.118750000000000E+09;-1.398903151091744E+00;-1.672921210988302E+02;-1.379857372882330E+00;1.039072712291343E+02;-6.769430360510103E+01;1.618453746429309E+01;
2.120000000000000E+09;-1.397465813306760E+00;-1.704086247617639E+02;-1.376300756816084E+00;1.008432374721365E+02;-6.799161894078625E+01;1.826798729615089E+01;
2.121250000000000E+09;-1.395028408620003E+00;-1.735220908075431E+02;-1.371258325456322E+00;9.775407652894229E+01;-6.721477559210258E+01;2.279955246127027E+01;
2.122500000000000E+09;-1.391231171644796E+00;-1.766452729537999E+02;-1.371025439553403E+00;9.467138572060995E+01;-6.720686769362439E+01;1.716820390131213E+01;
2.123750000000000E+09;-1.388614771024450E+00;-1.797694862800178E+02;-1.364528041904020E+00;9.161239099043161E+01;-6.749175506035718E+01;2.060379982334507E+01;
2.125000000000000E+09;-1.387002671704928E+00;1.771281577777238E+02;-1.361478528398820E+00;8.855071744556562E+01;-6.649098010508682E+01;1.547330295455509E+01;
2.126250000000000E+09;-1.383423259248977E+00;1.740394678928282E+02;-1.358552004410578E+00;8.550229953588637E+01;-6.633685954449476E+01;1.205430153239900E+01;
2.127500000000000E+09;-1.379544679992662E+00;1.709473148039859E+02;-1.356586128078330E+00;8.243475061150710E+01;-6.534866728961507E+01;6.661150512918531E+00;
2.128750000000000E+09;-1.376720217488022E+00;1.678680010556755E+02;-1.351219305412221E+00;7.939419795642893E+01;-6.520314014611019E+01;4.126937073815067E+00;
2.130000000000000E+09;-1.374220099100323E+00;1.647980454233139E+02;-1.348740978541760E+00;7.633847636162682E+01;-6.478734667919548E+01;1.383658798381204E+00;
2.131250000000000E+09;-1.370333002059410E+00;1.617229822306227E+02;-1.346902175470144E+00;7.330120747101982E+01;-6.461839275758416E+01;-5.649270715682164E+00;
2.132500000000000E+09;-1.368067672875594E+00;1.586692000578853E+02;-1.343662188730139E+00;7.026355476691813E+01;-6.438787471497056E+01;-5.089707510387734E+00;
2.133750000000000E+09;-1.364291364956328E+00;1.556245239771597E+02;-1.342158596099045E+00;6.722106762645072E+01;-6.440160487860209E+01;-1.272511842222180E+01;
2.135000000000000E+09;-1.362076140780642E+00;1.525641529409667E+02;-1.339936443928529E+00;6.418798132701158E+01;-6.419378123929762E+01;-1.414640120021325E+01;
2.136250000000000E+09;-1.358771904430587E+00;1.495292127699097E+02;-1.338436095782574E+00;6.116400841184095E+01;-6.465265052660695E+01;-1.809430744135755E+01;
2.137500000000000E+09;-1.355127825757206E+00;1.465003826952785E+02;-1.337386105179339E+00;5.813976002608144E+01;-6.489709262035610E+01;-1.808589669640892E+01;
2.138750000000000E+09;-1.351892022013091E+00;1.434721241422234E+02;-1.335830130500981E+00;5.509189490319978E+01;-6.490047916929183E+01;-2.302322793503851E+01;
2.140000000000000E+09;-1.348777740631076E+00;1.404585109629845E+02;-1.334719651329823E+00;5.207976644152619E+01;-6.498165753311817E+01;-2.429294287012045E+01;
2.141250000000000E+09;-1.346612977729762E+00;1.374219575671153E+02;-1.334600157508406E+00;4.906301306455772E+01;-6.525375455750772E+01;-2.295007262810548E+01;
2.142500000000000E+09;-1.342141405048422E+00;1.344152236929171E+02;-1.332455417575787E+00;4.603322132791733E+01;-6.483125550932373E+01;-1.970215481849318E+01;
2.143750000000000E+09;-1.339599208282695E+00;1.314046010473875E+02;-1.330871752524587E+00;4.302332133764720E+01;-6.427892723113709E+01;-2.373895692429774E+01;
2.145000000000000E+09;-1.334385128566054E+00;1.283867118251976E+02;-1.331485439068790E+00;4.000574408998986E+01;-6.420500124614271E+01;-2.442972393608922E+01;
2.146250000000000E+09;-1.331583330204458E+00;1.253808010359948E+02;-1.328792624629882E+00;3.697872114742447E+01;-6.409429977241830E+01;-2.302503761149800E+01;
2.147500000000000E+09;-1.328951567951153E+00;1.223838787444098E+02;-1.328277628031240E+00;3.396660541609082E+01;-6.328718724040910E+01;-2.608513964225203E+01;
2.148750000000000E+09;-1.324397239189123E+00;1.193920935371643E+02;-1.328404172497337E+00;3.093616205621132E+01;-6.283107572763222E+01;-2.798823688900607E+01;
2.150000000000000E+09;-1.320581049082357E+00;1.163918695358885E+02;-1.325736522866792E+00;2.792020426860960E+01;-6.316003710074770E+01;-2.727758541108788E+01;
2.151250000000000E+09;-1.318108343488336E+00;1.134210661825848E+02;-1.327349446419825E+00;2.488573696167160E+01;-6.221976500799079E+01;-2.711944441988826E+01;
2.152500000000000E+09;-1.312707918173963E+00;1.104462357184816E+02;-1.325279053318022E+00;2.185826056260235E+01;-6.134683352370110E+01;-3.424641366469401E+01;
2.153750000000000E+09;-1.310790269610530E+00;1.074544171896703E+02;-1.326707025543566E+00;1.882098728970813E+01;-6.014956041666133E+01;-3.789913901367406E+01;
