# Version 1.00
#
freq[Hz];db:Trc1_S11;ang:Trc1_S11;db:Trc2_S22;ang:Trc2_S22;db:Trc3_S21;ang:Trc3_S21;
2.000000000000000E+09;-7.799437696898047E-01;8.037675076074750E+01;-1.463583917430632E+00;5.366435768424898E+01;-5.912056349344664E+01;-4.033125878183823E+01;
2.001250000000000E+09;-7.808503097505687E-01;7.811849055215365E+01;-1.461816036471329E+00;5.041880622866928E+01;-5.910129671546711E+01;-4.407548447983781E+01;
2.002500000000000E+09;-7.799617363761833E-01;7.585112139116607E+01;-1.460703262384530E+00;4.718149154329242E+01;-5.887294276180540E+01;-4.617645661998786E+01;
2.003750000000000E+09;-7.810327601975847E-01;7.359639059455195E+01;-1.461332385770153E+00;4.392893438571332E+01;-5.897186522063480E+01;-4.953714521395375E+01;
2.005000000000000E+09;-7.812975565216290E-01;7.132327866404512E+01;-1.460171260962939E+00;4.067352027759176E+01;-5.888632086672893E+01;-5.178940204578326E+01;
2.006250000000000E+09;-7.805394999383065E-01;6.904498530989115E+01;-1.460717853865061E+00;3.742048770966326E+01;-5.883525940388403E+01;-5.486708872442985E+01;
2.007500000000000E+09;-7.810209060148738E-01;6.678769415638220E+01;-1.459646570922283E+00;3.415897103075245E+01;-5.863787323266170E+01;-5.780745855274045E+01;
2.008750000000000E+09;-7.811793297859781E-01;6.451925303117655E+01;-1.459801206664471E+00;3.089597960837553E+01;-5.876401328358764E+01;-6.104831033827382E+01;
2.010000000000000E+09;-7.808147097055960E-01;6.225124943262531E+01;-1.461263972106129E+00;2.762184636698180E+01;-5.863946346079712E+01;-6.355340285733327E+01;
2.011250000000000E+09;-7.811055767734533E-01;5.998417434917642E+01;-1.461169197349306E+00;2.434565284164402E+01;-5.865358501312589E+01;-6.689249853676742E+01;
2.012500000000000E+09;-7.827063923948674E-01;5.771615027370597E+01;-1.463910941882243E+00;2.107918802663941E+01;-5.862378638890198E+01;-7.010674092115434E+01;
2.013750000000000E+09;-7.810765903598953E-01;5.543618866627661E+01;-1.466018765188484E+00;1.778847620188294E+01;-5.872485274501332E+01;-7.308929459095462E+01;
2.015000000000000E+09;-7.820160281148941E-01;5.317370847720839E+01;-1.466399985734341E+00;1.450057925842319E+01;-5.877546317975991E+01;-7.626730720285950E+01;
2.016250000000000E+09;-7.817655226492217E-01;5.089165427602947E+01;-1.469093602083821E+00;1.121477495140496E+01;-5.865959742399653E+01;-7.877481826451897E+01;
2.017500000000000E+09;-7.825775684922931E-01;4.860787213921223E+01;-1.471175391908275E+00;7.919397820786243E+00;-5.870042378106194E+01;-8.266653956324203E+01;
2.018750000000000E+09;-7.831210401325993E-01;4.633061708719953E+01;-1.472880514882908E+00;4.623829885422743E+00;-5.855869806373193E+01;-8.542388750246880E+01;
2.020000000000000E+09;-7.826605744586428E-01;4.405476744275235E+01;-1.473297701117526E+00;1.315743587078874E+00;-5.856724213863792E+01;-8.899212239189951E+01;
2.021250000000000E+09;-7.838972991384701E-01;4.177354860271891E+01;-1.474714056883597E+00;-1.982563326833542E+00;-5.839835375453596E+01;-9.173828743167134E+01;
2.022500000000000E+09;-7.848700066450940E-01;3.949018998663536E+01;-1.475577944134799E+00;-5.283848431115549E+00;-5.856469329330441E+01;-9.397178707539743E+01;
2.023750000000000E+09;-7.837897602392603E-01;3.721158896152666E+01;-1.476783954485498E+00;-8.603051989158908E+00;-5.850293876605180E+01;-9.715356151172423E+01;
2.025000000000000E+09;-7.844057313210434E-01;3.492335523811408E+01;-1.478526204475412E+00;-1.189510038022786E+01;-5.852867172363887E+01;-1.001917207297293E+02;
2.026250000000000E+09;-7.847327000323100E-01;3.263276458323629E+01;-1.481727863143756E+00;-1.521593392773674E+01;-5.829270255718410E+01;-1.012798149418901E+02;
2.027500000000000E+09;-7.848294584255479E-01;3.035065060463172E+01;-1.483634153516960E+00;-1.853487179162008E+01;-5.839185602301211E+01;-1.054565844084209E+02;
2.028750000000000E+09;-7.845661524772736E-01;2.804590172970121E+01;-1.483753490333494E+00;-2.186019790625601E+01;-5.851928946611625E+01;-1.088667271895157E+02;
2.030000000000000E+09;-7.858175743168196E-01;2.575647163225490E+01;-1.485877482751557E+00;-2.519599312612264E+01;-5.836262298753022E+01;-1.118770988595709E+02;
2.031250000000000E+09;-7.860634828285211E-01;2.345169507009221E+01;-1.489583443948955E+00;-2.852464601123242E+01;-5.853612847180023E+01;-1.142002833859699E+02;
2.032500000000000E+09;-7.866753361536815E-01;2.115673163564423E+01;-1.490838629746660E+00;-3.184975328237982E+01;-5.839936338774951E+01;-1.170524589645832E+02;
2.033750000000000E+09;-7.866922077283467E-01;1.885332067354053E+01;-1.494004420060101E+00;-3.519197708387859E+01;-5.849025582281536E+01;-1.195888737033874E+02;
2.035000000000000E+09;-7.885313381468916E-01;1.653560641559439E+01;-1.494768185052088E+00;-3.854134074087781E+01;-5.844402261565853E+01;-1.232772645090238E+02;
2.036250000000000E+09;-7.882777004786397E-01;1.423407256409349E+01;-1.496998001047716E+00;-4.188720853762182E+01;-5.833756864407952E+01;-1.258979542777518E+02;
2.037500000000000E+09;-7.901974769174703E-01;1.189988252772174E+01;-1.499503012180981E+00;-4.523457458180631E+01;-5.846959100592703E+01;-1.275823093029147E+02;
2.038750000000000E+09;-7.910082680777235E-01;9.592333326463006E+00;-1.503397126879765E+00;-4.858710105468214E+01;-5.839877091991222E+01;-1.301699697846936E+02;
2.040000000000000E+09;-7.918869663354328E-01;7.262276256696153E+00;-1.505838469955243E+00;-5.195446760708798E+01;-5.859243034828658E+01;-1.331815197976295E+02;
2.041250000000000E+09;-7.912844349245146E-01;4.951511144168822E+00;-1.507788675812396E+00;-5.530985790436922E+01;-5.837727244577351E+01;-1.360172476340277E+02;
2.042500000000000E+09;-7.937753820505257E-01;2.650413078764860E+00;-1.508787112992177E+00;-5.866609708558724E+01;-5.833193073834552E+01;-1.387258021351085E+02;
2.043750000000000E+09;-7.942504322455972E-01;3.325206830886839E-01;-1.509042313350845E+00;-6.203083392959468E+01;-5.834729398641535E+01;-1.416246755373649E+02;
2.045000000000000E+09;-7.969852674457396E-01;-1.991313745624500E+00;-1.511228118422268E+00;-6.537372122764636E+01;-5.831041935460355E+01;-1.439364447296104E+02;
2.046250000000000E+09;-7.982083828169916E-01;-4.316463387577739E+00;-1.513692746587849E+00;-6.874459105766977E+01;-5.822047504186947E+01;-1.468772275998724E+02;
2.047500000000000E+09;-7.979749950827482E-01;-6.638953686445968E+00;-1.513540252061732E+00;-7.211211862091135E+01;-5.800463006427197E+01;-1.490133436472765E+02;
2.048750000000000E+09;-8.002922005666330E-01;-8.961114293900792E+00;-1.517146957345768E+00;-7.549064729028915E+01;-5.827238242887397E+01;-1.534627044335919E+02;
2.050000000000000E+09;-8.003725604093148E-01;-1.129682005260308E+01;-1.517784746654683E+00;-7.885525584422288E+01;-5.815938084599408E+01;-1.542621521442168E+02;
2.051250000000000E+09;-8.020673118217181E-01;-1.363367286453748E+01;-1.518066539449002E+00;-8.222190071242237E+01;-5.807667962259258E+01;-1.580263132900425E+02;
2.052500000000000E+09;-8.032189949081069E-01;-1.597457387106488E+01;-1.521086791605973E+00;-8.559386734622517E+01;-5.818287998202015E+01;-1.594911872132278E+02;
2.053750000000000E+09;-8.046659399876571E-01;-1.831944171897775E+01;-1.518308387109542E+00;-8.896208138391046E+01;-5.809780225610759E+01;-1.635310059846601E+02;
2.055000000000000E+09;-8.064993202304815E-01;-2.065705529220273E+01;-1.519972547139549E+00;-9.233213772146274E+01;-5.802554206280548E+01;-1.651907342915718E+02;
2.056250000000000E+09;-8.071602598606435E-01;-2.300858914240435E+01;-1.522662876276930E+00;-9.570821435125929E+01;-5.817743758204598E+01;-1.678601508638470E+02;
2.057500000000000E+09;-8.077091252202726E-01;-2.537207159584126E+01;-1.522876170224261E+00;-9.908468002454195E+01;-5.826809850489631E+01;-1.714260860124080E+02;
2.058750000000000E+09;-8.082803845813480E-01;-2.773262354656191E+01;-1.524162449546405E+00;-1.024524453128845E+02;-5.778173777165889E+01;-1.728397996686467E+02;
2.060000000000000E+09;-8.114522246106988E-01;-3.008812928408918E+01;-1.525830724152038E+00;-1.058159802922366E+02;-5.788060398691471E+01;-1.764042142098912E+02;
2.061250000000000E+09;-8.104079843758285E-01;-3.242465567432539E+01;-1.526292122329923E+00;-1.091809949150035E+02;-5.809117270434123E+01;-1.793710119683616E+02;
2.062500000000000E+09;-8.119826237750426E-01;-3.476560383713330E+01;-1.522832401649857E+00;-1.125193840195688E+02;-5.797069158385402E+01;1.798132305766252E+02;
2.063750000000000E+09;-8.123117950439679E-01;-3.712636949596368E+01;-1.521158622106592E+00;-1.158965019209517E+02;-5.780243499222329E+01;1.766685590117780E+02;
2.065000000000000E+09;-8.162333987621651E-01;-3.948454653480821E+01;-1.522143503757313E+00;-1.192442048793444E+02;-5.782928814797059E+01;1.737632063280745E+02;
2.066250000000000E+09;-8.160656350555806E-01;-4.186782198887178E+01;-1.520874198396431E+00;-1.225970252034295E+02;-5.766987173608158E+01;1.712547277718271E+02;
2.067500000000000E+09;-8.177049127271512E-01;-4.421721168753210E+01;-1.518382925362806E+00;-1.259526245550247E+02;-5.767941025874504E+01;1.675084846728469E+02;
2.068750000000000E+09;-8.173657539882816E-01;-4.657590189928627E+01;-1.516338868444079E+00;-1.292851437309387E+02;-5.768282830606429E+01;1.658330093243185E+02;
2.070000000000000E+09;-8.177803046705224E-01;-4.897001401491001E+01;-1.516201146313604E+00;-1.326281920055611E+02;-5.769292974496311E+01;1.620084235143769E+02;
2.071250000000000E+09;-8.207971793505281E-01;-5.132907042989696E+01;-1.512842411926922E+00;-1.359715843467779E+02;-5.757470865974231E+01;1.595549115033083E+02;
2.072500000000000E+09;-8.224393576510768E-01;-5.371579046432395E+01;-1.514406764003146E+00;-1.392883566967025E+02;-5.763773846216408E+01;1.581338823255348E+02;
2.073750000000000E+09;-8.212171269152997E-01;-5.607723088355141E+01;-1.510558504623226E+00;-1.426164738301942E+02;-5.764687033245784E+01;1.543288936998221E+02;
2.075000000000000E+09;-8.227645789955611E-01;-5.846626296847401E+01;-1.509606366283361E+00;-1.459213777781980E+02;-5.739175176365343E+01;1.526088626224117E+02;
2.076250000000000E+09;-8.238628176449059E-01;-6.085750065329859E+01;-1.506710680749108E+00;-1.492506112398331E+02;-5.734483045843854E+01;1.494708556977340E+02;
2.077500000000000E+09;-8.254890537480429E-01;-6.325066942473288E+01;-1.505509923123893E+00;-1.525722644918623E+02;-5.722655698685013E+01;1.469753228471874E+02;
2.078750000000000E+09;-8.260451629786886E-01;-6.564634889414513E+01;-1.502198710159716E+00;-1.558831370192324E+02;-5.715748398962020E+01;1.436529584072421E+02;
2.080000000000000E+09;-8.290435357934718E-01;-6.802047198886230E+01;-1.501157709525127E+00;-1.591737084798851E+02;-5.701617898761329E+01;1.419356598651088E+02;
2.081250000000000E+09;-8.305985782454113E-01;-7.040555009648831E+01;-1.497248607699551E+00;-1.624691220651418E+02;-5.698128180725823E+01;1.394048578938420E+02;
2.082500000000000E+09;-8.299119114255192E-01;-7.278146188817766E+01;-1.493961138772532E+00;-1.657639323151528E+02;-5.700062912216808E+01;1.365015741449334E+02;
2.083750000000000E+09;-8.340292726443022E-01;-7.516690605393580E+01;-1.492457712021928E+00;-1.690509184776742E+02;-5.715126962663385E+01;1.338353715327474E+02;
2.085000000000000E+09;-8.322926489797043E-01;-7.752805549212015E+01;-1.489425615088320E+00;-1.723068786489438E+02;-5.695404647336423E+01;1.314378680612467E+02;
2.086250000000000E+09;-8.339092548172621E-01;-7.992006648348499E+01;-1.486242048930194E+00;-1.755724315944088E+02;-5.687805063827717E+01;1.277483925134602E+02;
2.087500000000000E+09;-8.343494091900392E-01;-8.229558822276408E+01;-1.483455235450814E+00;-1.788279523178144E+02;-5.664589057043013E+01;1.257688339280729E+02;
2.088750000000000E+09;-8.355237142896200E-01;-8.468795343894021E+01;-1.478452076498937E+00;1.779097425995208E+02;-5.673353475044549E+01;1.225596189992077E+02;
2.090000000000000E+09;-8.380475910264427E-01;-8.707805683429457E+01;-1.475514041955255E+00;1.746933431776805E+02;-5.674563145229537E+01;1.205202565586925E+02;
2.091250000000000E+09;-8.392332353752009E-01;-8.946145057983853E+01;-1.473066966473180E+00;1.714475008641912E+02;-5.655432739280332E+01;1.167007970903141E+02;
2.092500000000000E+09;-8.387659810746152E-01;-9.184317648751419E+01;-1.467980024487166E+00;1.682297735628487E+02;-5.650717819681223E+01;1.151541227785263E+02;
2.093750000000000E+09;-8.411545694581297E-01;-9.423903594441084E+01;-1.466903615730875E+00;1.650038554513208E+02;-5.623494653933959E+01;1.123407075831363E+02;
2.095000000000000E+09;-8.429569825402307E-01;-9.663356589064902E+01;-1.462150751019820E+00;1.618108396444061E+02;-5.634054896238911E+01;1.096779585776290E+02;
2.096250000000000E+09;-8.450902135987891E-01;-9.904665568675470E+01;-1.458312930609133E+00;1.586118736114115E+02;-5.620506366925574E+01;1.070224434517065E+02;
2.097500000000000E+09;-8.464294483885247E-01;-1.014544036673892E+02;-1.454790671004546E+00;1.554268944579479E+02;-5.618547027836365E+01;1.032918444301072E+02;
2.098750000000000E+09;-8.497569175649876E-01;-1.038428110150394E+02;-1.450622358553329E+00;1.522483112630100E+02;-5.607107268457158E+01;1.004411206577720E+02;
2.100000000000000E+09;-8.489517843711026E-01;-1.062555500947101E+02;-1.445374073432458E+00;1.490766392744353E+02;-5.598099573493498E+01;9.871837223865239E+01;
2.101250000000000E+09;-8.512465014076276E-01;-1.086286339778279E+02;-1.440740496764628E+00;1.459138786920395E+02;-5.582942633756573E+01;9.759799556526670E+01;
2.102500000000000E+09;-8.494255733358724E-01;-1.110306072654518E+02;-1.435865214813792E+00;1.427532184189316E+02;-5.585075864814098E+01;9.227140452649216E+01;
2.103750000000000E+09;-8.497507181161567E-01;-1.134169333945569E+02;-1.434226016351380E+00;1.395962011870897E+02;-5.574933178189595E+01;8.996648861670408E+01;
2.105000000000000E+09;-8.509771529295562E-01;-1.158170677666130E+02;-1.429022794857550E+00;1.364388291970867E+02;-5.584442837014862E+01;8.430306161214212E+01;
2.106250000000000E+09;-8.512299429870469E-01;-1.182203682941876E+02;-1.424739717140549E+00;1.332933573335011E+02;-5.566744754316697E+01;8.252123557176736E+01;
2.107500000000000E+09;-8.517913808396983E-01;-1.206068339694211E+02;-1.420270673952489E+00;1.301694376382766E+02;-5.562901400118559E+01;8.122551912402005E+01;
2.108750000000000E+09;-8.530807684635850E-01;-1.229805981203055E+02;-1.417421706265631E+00;1.270341744180095E+02;-5.586050971270204E+01;7.833787732172077E+01;
2.110000000000000E+09;-8.530208865411287E-01;-1.253679349501528E+02;-1.411211189410015E+00;1.239211988097780E+02;-5.560706665957725E+01;7.470085086477864E+01;
2.111250000000000E+09;-8.557864195068953E-01;-1.277524127240612E+02;-1.409651992589029E+00;1.208158779480733E+02;-5.597223879152758E+01;7.088867745981565E+01;
2.112500000000000E+09;-8.536233020197492E-01;-1.301307147383638E+02;-1.404400820144450E+00;1.177099386451242E+02;-5.533954967081666E+01;6.893578958556611E+01;
2.113750000000000E+09;-8.571835843182330E-01;-1.325143035305953E+02;-1.399595551416985E+00;1.146079356407345E+02;-5.542882043883901E+01;6.574334338505645E+01;
2.115000000000000E+09;-8.550462471131151E-01;-1.348943521952281E+02;-1.395924523020528E+00;1.115374429980124E+02;-5.554068115606582E+01;6.333885882341813E+01;
2.116250000000000E+09;-8.547828834383796E-01;-1.372744106243121E+02;-1.392286895023565E+00;1.084521928178653E+02;-5.544122826594426E+01;6.041397228153244E+01;
2.117500000000000E+09;-8.565226094260907E-01;-1.396609084104648E+02;-1.388374736884172E+00;1.053723354950317E+02;-5.537756305636688E+01;5.847306181042517E+01;
2.118750000000000E+09;-8.573455776319672E-01;-1.420292653062634E+02;-1.383534903680163E+00;1.023094431471176E+02;-5.524187335333080E+01;5.442392827087140E+01;
2.120000000000000E+09;-8.596269019124709E-01;-1.443950311924777E+02;-1.382166476145509E+00;9.924360803873414E+01;-5.538292785151345E+01;5.222089851753235E+01;
2.121250000000000E+09;-8.599814015316765E-01;-1.467675147411169E+02;-1.377520118622104E+00;9.616967210402959E+01;-5.510905034705011E+01;4.901745264196455E+01;
2.122500000000000E+09;-8.589974239316216E-01;-1.491658034605029E+02;-1.371456248917828E+00;9.312654843297820E+01;-5.517728629868795E+01;4.651122638676201E+01;
2.123750000000000E+09;-8.585273046340915E-01;-1.515366410160463E+02;-1.367263993023748E+00;9.007459143482021E+01;-5.509733189550509E+01;4.353838900460064E+01;
2.125000000000000E+09;-8.603140835095950E-01;-1.539124588338722E+02;-1.365636550550670E+00;8.701273611006923E+01;-5.503012997165867E+01;4.023420946919593E+01;
2.126250000000000E+09;-8.588372008989881E-01;-1.562748986530463E+02;-1.359904667203818E+00;8.397518435587259E+01;-5.511169557893888E+01;3.680996398508378E+01;
2.127500000000000E+09;-8.616369645331796E-01;-1.586382767441091E+02;-1.359427458177838E+00;8.092260870825066E+01;-5.488289974208671E+01;3.358569434143526E+01;
2.128750000000000E+09;-8.601163638120020E-01;-1.610048509692996E+02;-1.354367388018410E+00;7.789383760135738E+01;-5.503332562120712E+01;3.190717165270090E+01;
2.130000000000000E+09;-8.609693208316170E-01;-1.633751847755220E+02;-1.352673631706551E+00;7.486250278834024E+01;-5.486752477187888E+01;2.827135000793969E+01;
2.131250000000000E+09;-8.606389630599405E-01;-1.657190362862548E+02;-1.351296664001891E+00;7.183378356828084E+01;-5.491855000191354E+01;2.563133809230883E+01;
2.132500000000000E+09;-8.616665915388635E-01;-1.680677874803490E+02;-1.348685188999603E+00;6.881280862558769E+01;-5.488117493963194E+01;2.242000688912083E+01;
2.133750000000000E+09;-8.618404649539989E-01;-1.704331884174944E+02;-1.345807057452909E+00;6.578262225330245E+01;-5.473685272556635E+01;2.039872282937276E+01;
2.135000000000000E+09;-8.615668081143223E-01;-1.727714679262083E+02;-1.344928326728877E+00;6.276642964573073E+01;-5.476738109924994E+01;1.645831936165454E+01;
2.136250000000000E+09;-8.606795463849359E-01;-1.751233067569850E+02;-1.344660423771210E+00;5.976070323930667E+01;-5.474912256680118E+01;1.304291218868600E+01;
2.137500000000000E+09;-8.623132814100799E-01;-1.774485887886234E+02;-1.342026176493150E+00;5.675458876073579E+01;-5.475532306796936E+01;1.214721761063851E+01;
2.138750000000000E+09;-8.607853106062462E-01;-1.797808800762986E+02;-1.338818396643367E+00;5.374472033149778E+01;-5.481116939580139E+01;8.610700968415278E+00;
2.140000000000000E+09;-8.623422497409411E-01;1.778917629623077E+02;-1.337802823164495E+00;5.073318629959592E+01;-5.475295088327859E+01;5.531453319142551E+00;
2.141250000000000E+09;-8.611263371916756E-01;1.755253631486613E+02;-1.334997515156696E+00;4.772139574968953E+01;-5.468036443491398E+01;1.094523782395711E+00;
2.142500000000000E+09;-8.607556873413248E-01;1.731873085824841E+02;-1.333566379748594E+00;4.472532333506346E+01;-5.472003905955438E+01;2.583528384204353E-01;
2.143750000000000E+09;-8.583894235878009E-01;1.708429297411285E+02;-1.332220175322822E+00;4.171107396476467E+01;-5.466339338092384E+01;-1.590762181299602E+00;
2.145000000000000E+09;-8.584966283509833E-01;1.685074665779012E+02;-1.332968951659227E+00;3.871223926897002E+01;-5.463433498343480E+01;-5.309735147875833E+00;
2.146250000000000E+09;-8.579250841658070E-01;1.661631409199518E+02;-1.329785140807843E+00;3.570258814266104E+01;-5.481457644621656E+01;-7.063771432198748E+00;
2.147500000000000E+09;-8.575421135659713E-01;1.638387805681829E+02;-1.330612743439044E+00;3.269145248180261E+01;-5.450404447169092E+01;-1.215852075192691E+01;
2.148750000000000E+09;-8.576526626908445E-01;1.615158707530024E+02;-1.328646970902129E+00;2.967689277522010E+01;-5.461594187278254E+01;-1.346753265445902E+01;
2.150000000000000E+09;-8.556604695751641E-01;1.591752016921539E+02;-1.328412855555092E+00;2.667252136373944E+01;-5.462050376134718E+01;-1.629671553106300E+01;
2.151250000000000E+09;-8.558347892040092E-01;1.568505461323204E+02;-1.328112100311112E+00;2.364684731040936E+01;-5.460646359974244E+01;-1.837624851240465E+01;
2.152500000000000E+09;-8.546161330433928E-01;1.545302412313421E+02;-1.328466777650914E+00;2.064554020589187E+01;-5.453005152415685E+01;-2.174715629847295E+01;
2.153750000000000E+09;-8.541111929543002E-01;1.522136747135363E+02;-1.330976204672432E+00;1.763672940473405E+01;-5.431184577886956E+01;-2.269967573921235E+01;
