# Version 1.00
#
freq[Hz];db:Trc1_S11;ang:Trc1_S11;db:Trc2_S22;ang:Trc2_S22;db:Trc3_S21;ang:Trc3_S21;
2.000000000000000E+09;-1.518718849683977E+00;1.290502391509569E+02;-1.456910216301952E+00;5.524061774242589E+01;-5.373638270267242E+01;3.413329401947738E+01;
2.001250000000000E+09;-1.513806696967503E+00;1.258376544544014E+02;-1.456067841969302E+00;5.200401183895941E+01;-5.373322788141776E+01;2.935680103879865E+01;
2.002500000000000E+09;-1.512147710728194E+00;1.226403393971579E+02;-1.455290284859923E+00;4.877155629920018E+01;-5.391106437246860E+01;2.500096524282043E+01;
2.003750000000000E+09;-1.509454601965443E+00;1.194397177223950E+02;-1.455226920481787E+00;4.552508696894920E+01;-5.394830691600914E+01;2.120634523626177E+01;
2.005000000000000E+09;-1.505675866512806E+00;1.162434683256427E+02;-1.452858338146404E+00;4.227764324543870E+01;-5.401798774998244E+01;1.730481347748414E+01;
2.006250000000000E+09;-1.504040480426163E+00;1.130477486532259E+02;-1.454905497903896E+00;3.903194945160924E+01;-5.425195712100346E+01;1.396691770372045E+01;
2.007500000000000E+09;-1.500087816351490E+00;1.098695815740274E+02;-1.453038290611872E+00;3.577291038366958E+01;-5.426923367637751E+01;9.978495882889353E+00;
2.008750000000000E+09;-1.498198048273369E+00;1.066779077388339E+02;-1.456273428539806E+00;3.252964592740341E+01;-5.430378224953642E+01;7.099769518243987E+00;
2.010000000000000E+09;-1.495288397987797E+00;1.034935630692922E+02;-1.454374392707491E+00;2.926438251488631E+01;-5.448290717316326E+01;3.601630739451824E+00;
2.011250000000000E+09;-1.492252640682696E+00;1.003137923772696E+02;-1.457755057852632E+00;2.599107266331019E+01;-5.438614865920450E+01;9.887072434078158E-01;
2.012500000000000E+09;-1.491436840047486E+00;9.714299116495171E+01;-1.457467169108686E+00;2.270498201480503E+01;-5.455663717012656E+01;-2.358503529104960E+00;
2.013750000000000E+09;-1.488796708599174E+00;9.396649305908105E+01;-1.458604206215577E+00;1.943410087675798E+01;-5.453580122022675E+01;-5.406161705227436E+00;
2.015000000000000E+09;-1.488181128006653E+00;9.079793544237319E+01;-1.458985577851867E+00;1.615914881725588E+01;-5.446067615042408E+01;-9.972992326535207E+00;
2.016250000000000E+09;-1.484810190531540E+00;8.763897780015411E+01;-1.462315114668612E+00;1.288283618920255E+01;-5.450729515900649E+01;-1.425120567896782E+01;
2.017500000000000E+09;-1.481599155030716E+00;8.448246782112312E+01;-1.465662087398891E+00;9.586244854971078E+00;-5.470015100810201E+01;-1.742655589819745E+01;
2.018750000000000E+09;-1.478993002317657E+00;8.131193262078359E+01;-1.467813927397293E+00;6.291858922106013E+00;-5.471617299652054E+01;-2.082300245193918E+01;
2.020000000000000E+09;-1.479443750056463E+00;7.815590808373578E+01;-1.468298336025358E+00;2.989141968469695E+00;-5.498348387312652E+01;-2.352331968389623E+01;
2.021250000000000E+09;-1.475039126524166E+00;7.499937385927548E+01;-1.468350049750013E+00;-2.883887239691684E-01;-5.502138852346554E+01;-2.686258247423233E+01;
2.022500000000000E+09;-1.472673200550334E+00;7.183538683478390E+01;-1.468501850092961E+00;-3.585201246455748E+00;-5.522023518495078E+01;-2.942312700827070E+01;
2.023750000000000E+09;-1.471555539247874E+00;6.868636526917908E+01;-1.472167748306008E+00;-6.878142202024650E+00;-5.533942134386634E+01;-3.205635098924053E+01;
2.025000000000000E+09;-1.468782709035430E+00;6.552570233452650E+01;-1.470614502991943E+00;-1.019558961883863E+01;-5.528850068284336E+01;-3.531246339761066E+01;
2.026250000000000E+09;-1.466718540314463E+00;6.238024035302661E+01;-1.473305324779670E+00;-1.350806203348294E+01;-5.526559966974084E+01;-3.669410043739110E+01;
2.027500000000000E+09;-1.465013569257052E+00;5.922049356611370E+01;-1.474481808190957E+00;-1.681212402205763E+01;-5.526969486519373E+01;-3.964661366283878E+01;
2.028750000000000E+09;-1.463515847688998E+00;5.605916496983225E+01;-1.478119644672655E+00;-2.014965490609411E+01;-5.518179635167121E+01;-4.238006801680218E+01;
2.030000000000000E+09;-1.462344648675592E+00;5.289412081723351E+01;-1.478618921747686E+00;-2.346108836112904E+01;-5.525744751686730E+01;-4.593762600932332E+01;
2.031250000000000E+09;-1.460182770010771E+00;4.973929908531196E+01;-1.482354833396022E+00;-2.679620585496407E+01;-5.527038940445724E+01;-4.865716968072876E+01;
2.032500000000000E+09;-1.459227926122323E+00;4.659042231390713E+01;-1.484883177458203E+00;-3.013357696069882E+01;-5.517347221023086E+01;-5.038111694056904E+01;
2.033750000000000E+09;-1.459194454604521E+00;4.342539971383345E+01;-1.490224177216847E+00;-3.344681144991463E+01;-5.505797547271007E+01;-5.491385729419848E+01;
2.035000000000000E+09;-1.456725000350251E+00;4.024722166296981E+01;-1.488034693280589E+00;-3.678891279404436E+01;-5.498131605582130E+01;-5.746113608817519E+01;
2.036250000000000E+09;-1.456809913136625E+00;3.709255113646474E+01;-1.490967827728748E+00;-4.013388806795447E+01;-5.496028326343335E+01;-6.152580457726722E+01;
2.037500000000000E+09;-1.456764191762456E+00;3.392735990948498E+01;-1.491655245259986E+00;-4.348334961425682E+01;-5.495008081486826E+01;-6.410789105918103E+01;
2.038750000000000E+09;-1.452806894786473E+00;3.076005755108687E+01;-1.494018344804836E+00;-4.684944668486518E+01;-5.504213124578346E+01;-6.781465826219259E+01;
2.040000000000000E+09;-1.453459011292062E+00;2.759247242580113E+01;-1.498881380319580E+00;-5.020049577987331E+01;-5.498087587375194E+01;-7.017088718614276E+01;
2.041250000000000E+09;-1.453145638997649E+00;2.443865442111853E+01;-1.496702496049004E+00;-5.356367743364726E+01;-5.487332918501924E+01;-7.305106124230544E+01;
2.042500000000000E+09;-1.452363778306666E+00;2.127097430325301E+01;-1.500659144183125E+00;-5.691068089358684E+01;-5.484794913687288E+01;-7.656507605019418E+01;
2.043750000000000E+09;-1.453129512841152E+00;1.810315443750793E+01;-1.503440585312101E+00;-6.027408945637540E+01;-5.473424393866096E+01;-8.032873183523743E+01;
2.045000000000000E+09;-1.451807821453206E+00;1.493645611784939E+01;-1.501957787445180E+00;-6.364763445083516E+01;-5.461942634388087E+01;-8.378678543725721E+01;
2.046250000000000E+09;-1.452280351897852E+00;1.177767700979809E+01;-1.504722188959664E+00;-6.699855733137537E+01;-5.472591392610696E+01;-8.694790944763805E+01;
2.047500000000000E+09;-1.452313591795445E+00;8.598764132289743E+00;-1.508250090897510E+00;-7.036132728110066E+01;-5.445889033764115E+01;-9.020596470257874E+01;
2.048750000000000E+09;-1.451559882885614E+00;5.425537883534999E+00;-1.510841563499503E+00;-7.374310626462092E+01;-5.454820891458432E+01;-9.411866410973160E+01;
2.050000000000000E+09;-1.452366686965527E+00;2.248214234940452E+00;-1.510110864999509E+00;-7.711821489964323E+01;-5.450678262075804E+01;-9.682753043170375E+01;
2.051250000000000E+09;-1.450886584462926E+00;-9.343295490655363E-01;-1.512803115273933E+00;-8.046866401567041E+01;-5.453746873634594E+01;-1.018214909416343E+02;
2.052500000000000E+09;-1.449257456229407E+00;-4.120229623728568E+00;-1.515618584634836E+00;-8.385525384678924E+01;-5.455751403714099E+01;-1.055786493328657E+02;
2.053750000000000E+09;-1.449998384853765E+00;-7.315987251635021E+00;-1.515109293489190E+00;-8.723258150982539E+01;-5.449693732130814E+01;-1.090938190285245E+02;
2.055000000000000E+09;-1.451023358408230E+00;-1.050348712250828E+01;-1.517804417841921E+00;-9.058987253756075E+01;-5.449096059723321E+01;-1.125255890027827E+02;
2.056250000000000E+09;-1.452999476313926E+00;-1.370472788007937E+01;-1.516631496859858E+00;-9.396210376153323E+01;-5.451373978086895E+01;-1.168991649067065E+02;
2.057500000000000E+09;-1.452639205600783E+00;-1.689017002685031E+01;-1.519234502474768E+00;-9.733837105612899E+01;-5.462066162151243E+01;-1.185656906214618E+02;
2.058750000000000E+09;-1.452189702397800E+00;-2.008686016036241E+01;-1.520446927279462E+00;-1.007041363855162E+02;-5.451377754339664E+01;-1.225097333498943E+02;
2.060000000000000E+09;-1.452635073947839E+00;-2.329468258841916E+01;-1.520505711080262E+00;-1.040832762912865E+02;-5.467877221596282E+01;-1.258980379926174E+02;
2.061250000000000E+09;-1.451290902540100E+00;-2.648577979536855E+01;-1.519942840477593E+00;-1.074374936047295E+02;-5.467193635488360E+01;-1.297981652697313E+02;
2.062500000000000E+09;-1.452675689964338E+00;-2.967067532943934E+01;-1.521053634253064E+00;-1.108089650119158E+02;-5.463907010535153E+01;-1.323792378646326E+02;
2.063750000000000E+09;-1.451245921917041E+00;-3.287841840714191E+01;-1.520188054212227E+00;-1.141668240326781E+02;-5.474401203792078E+01;-1.356174954496598E+02;
2.065000000000000E+09;-1.452277871793117E+00;-3.605975610800996E+01;-1.518541853974740E+00;-1.175313712233252E+02;-5.472594799946570E+01;-1.394663027508690E+02;
2.066250000000000E+09;-1.449312422247926E+00;-3.927304693730934E+01;-1.518335384215176E+00;-1.208785533404322E+02;-5.477779634514454E+01;-1.425081448440754E+02;
2.067500000000000E+09;-1.449325981714898E+00;-4.247606329526317E+01;-1.515050252481390E+00;-1.242390096353840E+02;-5.476908623042151E+01;-1.464032985539822E+02;
2.068750000000000E+09;-1.448768864796185E+00;-4.568927529553276E+01;-1.516119806407429E+00;-1.275867817428953E+02;-5.484575751945562E+01;-1.490783275633293E+02;
2.070000000000000E+09;-1.446511980724905E+00;-4.888925206409554E+01;-1.515906707963461E+00;-1.309295710243499E+02;-5.497075113615711E+01;-1.531920403410242E+02;
2.071250000000000E+09;-1.448008540412629E+00;-5.209349151852260E+01;-1.512910898393779E+00;-1.342749051136110E+02;-5.491516032726317E+01;-1.553930608335750E+02;
2.072500000000000E+09;-1.449059175815477E+00;-5.532198426106208E+01;-1.511218201991659E+00;-1.376160837254014E+02;-5.487954279530108E+01;-1.574775536113203E+02;
2.073750000000000E+09;-1.447434967841719E+00;-5.852344565485072E+01;-1.513744881134618E+00;-1.409426909272499E+02;-5.479330711457540E+01;-1.616842065482354E+02;
2.075000000000000E+09;-1.445176060852839E+00;-6.174477110188275E+01;-1.509217728454954E+00;-1.442578867662847E+02;-5.487481185199967E+01;-1.655643425546037E+02;
2.076250000000000E+09;-1.447717534628761E+00;-6.496172846597270E+01;-1.508577975833652E+00;-1.475887725476238E+02;-5.471846245591782E+01;-1.688970434265796E+02;
2.077500000000000E+09;-1.447200581059921E+00;-6.818190393934196E+01;-1.507210206866892E+00;-1.509129639916335E+02;-5.491525524864099E+01;-1.725157003296981E+02;
2.078750000000000E+09;-1.444416364233387E+00;-7.138195340626054E+01;-1.504677780905114E+00;-1.542247401085164E+02;-5.482120224405140E+01;-1.763178739443671E+02;
2.080000000000000E+09;-1.447704298097341E+00;-7.459390413384975E+01;-1.502854154159287E+00;-1.575283403735929E+02;-5.476498414162808E+01;-1.790790760113251E+02;
2.081250000000000E+09;-1.444964405871604E+00;-7.778389402199943E+01;-1.500527000970075E+00;-1.608305604285605E+02;-5.497153699617278E+01;1.773791112196502E+02;
2.082500000000000E+09;-1.444411661609178E+00;-8.099755524127227E+01;-1.495651769574587E+00;-1.641232296521691E+02;-5.485163299358035E+01;1.743299451252488E+02;
2.083750000000000E+09;-1.441554453064299E+00;-8.418334645410604E+01;-1.493391310532881E+00;-1.674161419414556E+02;-5.478380669959499E+01;1.715124228603892E+02;
2.085000000000000E+09;-1.439312017891255E+00;-8.737451514846046E+01;-1.492524421740658E+00;-1.706898006099306E+02;-5.488426046175685E+01;1.682304670136979E+02;
2.086250000000000E+09;-1.437680902522845E+00;-9.056771215575961E+01;-1.490375868120533E+00;-1.739725630555814E+02;-5.470263377772270E+01;1.652225582551406E+02;
2.087500000000000E+09;-1.437846669156961E+00;-9.376201114193272E+01;-1.484868104937550E+00;-1.772478180207530E+02;-5.455058985394721E+01;1.612052329344799E+02;
2.088750000000000E+09;-1.436530966329971E+00;-9.696002063258312E+01;-1.484091341105415E+00;1.795005402198896E+02;-5.466217052005557E+01;1.566780165085168E+02;
2.090000000000000E+09;-1.436474470635283E+00;-1.001574543217640E+02;-1.479697484970499E+00;1.762464662344663E+02;-5.474813102263900E+01;1.525497416034862E+02;
2.091250000000000E+09;-1.435223787643988E+00;-1.033435886393542E+02;-1.477187660324859E+00;1.730084608846617E+02;-5.474575638553274E+01;1.485651904683868E+02;
2.092500000000000E+09;-1.434253233101392E+00;-1.065339245122716E+02;-1.474283642615070E+00;1.697686751906474E+02;-5.504348207876610E+01;1.458889315174081E+02;
2.093750000000000E+09;-1.432773338776894E+00;-1.097351529468581E+02;-1.469705888168477E+00;1.665374129596275E+02;-5.488108581790611E+01;1.421766131311205E+02;
2.095000000000000E+09;-1.431662126103310E+00;-1.129269353011717E+02;-1.465410751436489E+00;1.633214870196114E+02;-5.496254603350437E+01;1.395137456845450E+02;
2.096250000000000E+09;-1.431418930516536E+00;-1.161088533602752E+02;-1.462757220247497E+00;1.601175880624520E+02;-5.501735494563803E+01;1.355171898248330E+02;
2.097500000000000E+09;-1.428869780142963E+00;-1.192674449257410E+02;-1.460158366860690E+00;1.569061317130503E+02;-5.508029854360801E+01;1.317933002910448E+02;
2.098750000000000E+09;-1.426859234051371E+00;-1.224574525527380E+02;-1.456247450309093E+00;1.537269851920228E+02;-5.522822509765780E+01;1.286671840351798E+02;
2.100000000000000E+09;-1.424922134092136E+00;-1.256463068995753E+02;-1.452376669363977E+00;1.505472416403985E+02;-5.527963881672044E+01;1.243952095686944E+02;
2.101250000000000E+09;-1.422854087459023E+00;-1.287890191018809E+02;-1.449574142803457E+00;1.473784610079150E+02;-5.551079596892924E+01;1.213434610632963E+02;
2.102500000000000E+09;-1.420461906532189E+00;-1.319531966363110E+02;-1.442717627371619E+00;1.441913127918926E+02;-5.560416487741652E+01;1.190783667217604E+02;
2.103750000000000E+09;-1.417856670105756E+00;-1.351147860385715E+02;-1.441044593445800E+00;1.410333482100842E+02;-5.602364916518986E+01;1.170451689077000E+02;
2.105000000000000E+09;-1.414777127643272E+00;-1.382465430618247E+02;-1.435801790703688E+00;1.378718305594846E+02;-5.561420068457799E+01;1.159183887160155E+02;
2.106250000000000E+09;-1.410215185899003E+00;-1.413906272322602E+02;-1.431665241275187E+00;1.347178573404206E+02;-5.561722989317875E+01;1.126091891953451E+02;
2.107500000000000E+09;-1.409658794847757E+00;-1.445180212350902E+02;-1.427121576383503E+00;1.315615704225482E+02;-5.538743159239364E+01;1.090675220185213E+02;
2.108750000000000E+09;-1.403907211749830E+00;-1.476678026550198E+02;-1.423351156792098E+00;1.284361502308565E+02;-5.550254043273807E+01;1.073539194664044E+02;
2.110000000000000E+09;-1.401758636614272E+00;-1.507779605288250E+02;-1.420233660812455E+00;1.252966838502259E+02;-5.545599035507544E+01;1.017116574124020E+02;
2.111250000000000E+09;-1.398755932867866E+00;-1.539075530938651E+02;-1.414764094344375E+00;1.221627188833399E+02;-5.575997723571565E+01;9.983360897432725E+01;
2.112500000000000E+09;-1.397385382857213E+00;-1.570313829854267E+02;-1.410927376444414E+00;1.190565180820550E+02;-5.546735318353250E+01;9.582189737561724E+01;
2.113750000000000E+09;-1.392281440152593E+00;-1.601367999487202E+02;-1.406468815105765E+00;1.159508275152356E+02;-5.551326496307652E+01;9.301626396011324E+01;
2.115000000000000E+09;-1.389567952487718E+00;-1.632271814473915E+02;-1.402626306855682E+00;1.128391244557542E+02;-5.558094437799458E+01;8.901337372687883E+01;
2.116250000000000E+09;-1.386552435200329E+00;-1.663378527512635E+02;-1.399669608736856E+00;1.097479651393058E+02;-5.538060912698630E+01;8.532933470860753E+01;
2.117500000000000E+09;-1.383583989329280E+00;-1.694209928144999E+02;-1.396163998721649E+00;1.066545871361594E+02;-5.540246741196935E+01;8.266288436862916E+01;
2.118750000000000E+09;-1.380170855884411E+00;-1.725065991631170E+02;-1.394166055602784E+00;1.035649502157349E+02;-5.565363972990908E+01;7.999806457352487E+01;
2.120000000000000E+09;-1.379949435878145E+00;-1.755766530882277E+02;-1.390095637590909E+00;1.005059914401157E+02;-5.569357324476920E+01;7.727432573343054E+01;
2.121250000000000E+09;-1.375143456351270E+00;-1.786512896363982E+02;-1.384514487832413E+00;9.740796345494262E+01;-5.560291407060354E+01;7.428586199373365E+01;
2.122500000000000E+09;-1.371452475542614E+00;1.782692588886884E+02;-1.382866639127050E+00;9.433931104706888E+01;-5.546194778204479E+01;7.091539260574608E+01;
2.123750000000000E+09;-1.367952496491106E+00;1.752133806247445E+02;-1.378733528908181E+00;9.127778159885635E+01;-5.554460508041858E+01;6.720079692945399E+01;
2.125000000000000E+09;-1.364452905507773E+00;1.721446966867468E+02;-1.373837335909045E+00;8.820838683330186E+01;-5.541285111389838E+01;6.330673490021855E+01;
2.126250000000000E+09;-1.360913935701804E+00;1.690962445307979E+02;-1.371996967055239E+00;8.514406101286409E+01;-5.542023991681386E+01;6.048102773598967E+01;
2.127500000000000E+09;-1.359178963910259E+00;1.660478638852100E+02;-1.367264366652556E+00;8.209370220784608E+01;-5.539028392739632E+01;5.731010341764294E+01;
2.128750000000000E+09;-1.352937508428371E+00;1.630175163841091E+02;-1.364883262468748E+00;7.904784629296431E+01;-5.536851227223339E+01;5.419444588443039E+01;
2.130000000000000E+09;-1.350648631553299E+00;1.599930949844803E+02;-1.362038906996150E+00;7.600017103213507E+01;-5.540112635698834E+01;4.997480689510486E+01;
2.131250000000000E+09;-1.348029663141339E+00;1.569657022528258E+02;-1.359037456869170E+00;7.294130812995034E+01;-5.527555248693314E+01;4.520559671389751E+01;
2.132500000000000E+09;-1.342195331807437E+00;1.539498231186265E+02;-1.356401509411819E+00;6.991397202759224E+01;-5.521115340279315E+01;4.290253890611537E+01;
2.133750000000000E+09;-1.341145246639826E+00;1.509452798605163E+02;-1.354751211906325E+00;6.687727216447179E+01;-5.515842431672903E+01;3.796195459047205E+01;
2.135000000000000E+09;-1.336323850337264E+00;1.479415301970297E+02;-1.353369417873352E+00;6.384012278025292E+01;-5.535162078118616E+01;3.325156650328579E+01;
2.136250000000000E+09;-1.332057352652657E+00;1.449518887004279E+02;-1.352146544583945E+00;6.080756697998270E+01;-5.536363867436843E+01;3.057483762860020E+01;
2.137500000000000E+09;-1.330576748576523E+00;1.419683598987672E+02;-1.352255983796728E+00;5.777685174833522E+01;-5.546849618550985E+01;2.677576212344813E+01;
2.138750000000000E+09;-1.325306249851561E+00;1.389869757304191E+02;-1.348847040744888E+00;5.473292550874129E+01;-5.557088778913821E+01;2.446165946430817E+01;
2.140000000000000E+09;-1.322962627098283E+00;1.360094231736250E+02;-1.347845971858298E+00;5.171342844295585E+01;-5.544253415322885E+01;2.076405950518297E+01;
2.141250000000000E+09;-1.317449363842400E+00;1.330272803716824E+02;-1.345396903016003E+00;4.870932604301807E+01;-5.507629840734415E+01;1.907771644962056E+01;
2.142500000000000E+09;-1.316335339132516E+00;1.300477324840893E+02;-1.343338850435275E+00;4.567889481140814E+01;-5.552550940338720E+01;1.217090135040901E+01;
2.143750000000000E+09;-1.311942173127635E+00;1.270886504528335E+02;-1.342802529138729E+00;4.265610122141548E+01;-5.528800834578527E+01;8.819802339099917E+00;
2.145000000000000E+09;-1.309371879286006E+00;1.241160988617510E+02;-1.341769607894880E+00;3.963799979500524E+01;-5.556434571652989E+01;4.514540864960304E+00;
2.146250000000000E+09;-1.306290219012341E+00;1.211499619438112E+02;-1.339232851411506E+00;3.660956765261721E+01;-5.575674558884535E+01;2.023550167753713E+00;
2.147500000000000E+09;-1.300225598454186E+00;1.181955867674402E+02;-1.338729998867301E+00;3.358662121922767E+01;-5.574076855616964E+01;-3.485880336057234E+00;
2.148750000000000E+09;-1.298962785519636E+00;1.152494728576775E+02;-1.338615506827533E+00;3.055929348685097E+01;-5.591697130868835E+01;-7.035168703009374E+00;
2.150000000000000E+09;-1.294986650948058E+00;1.123014806141887E+02;-1.339090734127244E+00;2.752316271489599E+01;-5.596136150377277E+01;-1.121264249466446E+01;
2.151250000000000E+09;-1.291231429503199E+00;1.093674151780336E+02;-1.337622191220387E+00;2.449175431344120E+01;-5.616795453617538E+01;-1.307101043981988E+01;
2.152500000000000E+09;-1.288410474277482E+00;1.064359177615186E+02;-1.339404692160759E+00;2.146000841359449E+01;-5.607847087628498E+01;-2.025340917841034E+01;
2.153750000000000E+09;-1.283143880037992E+00;1.034963017553319E+02;-1.339202764194085E+00;1.843076909920469E+01;-5.563271086308631E+01;-2.415350230023818E+01;
