# Version 1.00
#
freq[Hz];db:Trc1_S11;ang:Trc1_S11;db:Trc2_S21;ang:Trc2_S21;db:Trc3_S21;ang:Trc3_S21;db:Trc4_S22;ang:Trc4_S22;db:Mem5[Trc2]_S21;ang:Mem5[Trc2]_S21;
2.600000000000000E+09;-2.289610321290013E+01;-1.180828146229688E+02;-1.025590180635976E+00;-8.563798981134917E+01;-1.025590180635976E+00;-8.563798981134917E+01;-2.428968113486924E+01;1.463780237348359E+02;5.875381254601205E+01;5.590136416300765E+00;
2.601000000000000E+09;-2.289525249577522E+01;-1.192073007876765E+02;-1.015864211030234E+00;-8.589132740961612E+01;-1.015864211030234E+00;-8.589132740961612E+01;-2.430903270808473E+01;1.456720982212531E+02;5.829970060370935E+01;6.637685966987369E+00;
2.602000000000000E+09;-2.294484516213887E+01;-1.199995650290352E+02;-1.010937263501970E+00;-8.635839140179961E+01;-1.010937263501970E+00;-8.635839140179961E+01;-2.433311308438402E+01;1.447520304143601E+02;5.834211516455704E+01;5.470699894186045E+00;
2.603000000000000E+09;-2.293395395921404E+01;-1.207217883860572E+02;-1.012483770636834E+00;-8.683712761795015E+01;-1.012483770636834E+00;-8.683712761795015E+01;-2.428638925793005E+01;1.445133670172248E+02;5.843676251362464E+01;5.518854381021189E+00;
2.604000000000000E+09;-2.299257111804554E+01;-1.214571237884827E+02;-1.010362855514942E+00;-8.740879043668708E+01;-1.010362855514942E+00;-8.740879043668708E+01;-2.432625277155345E+01;1.438850771161765E+02;5.828202319974036E+01;5.410608723094036E+00;
2.605000000000000E+09;-2.302185401579446E+01;-1.222353906558325E+02;-1.009786935129741E+00;-8.796902767783813E+01;-1.009786935129741E+00;-8.796902767783813E+01;-2.425530633816697E+01;1.432867834799866E+02;5.852947654459741E+01;5.218525276507603E+00;
2.606000000000000E+09;-2.303845812072190E+01;-1.229490240653451E+02;-1.007711116741152E+00;-8.853729029112645E+01;-1.007711116741152E+00;-8.853729029112645E+01;-2.428946809590966E+01;1.433113702564650E+02;5.864221660032482E+01;3.859098787865723E+00;
2.607000000000000E+09;-2.309960860451426E+01;-1.235426899909832E+02;-1.012900085557025E+00;-8.912327053276928E+01;-1.012900085557025E+00;-8.912327053276928E+01;-2.430382503709360E+01;1.421428658117243E+02;5.856255147473292E+01;5.545083365164797E+00;
2.608000000000000E+09;-2.316318624775172E+01;-1.240587857415511E+02;-1.009139029218373E+00;-8.971226915255717E+01;-1.009139029218373E+00;-8.971226915255717E+01;-2.434045891688196E+01;1.419732768384684E+02;5.811485350005339E+01;7.477154673473003E+00;
2.609000000000000E+09;-2.313507260130260E+01;-1.248781122795780E+02;-1.011568323953623E+00;-9.032246534313060E+01;-1.011568323953623E+00;-9.032246534313060E+01;-2.427606351684706E+01;1.417394382330000E+02;5.828841201875689E+01;6.426206352270406E+00;
2.610000000000000E+09;-2.316825284174375E+01;-1.258691796554465E+02;-1.009863618443490E+00;-9.091525683389959E+01;-1.009863618443490E+00;-9.091525683389959E+01;-2.425538380177104E+01;1.414320204933131E+02;5.837983676716844E+01;5.868037459868741E+00;
2.611000000000000E+09;-2.324065827496151E+01;-1.261561246755613E+02;-1.009280535158697E+00;-9.149575206914210E+01;-1.009280535158697E+00;-9.149575206914210E+01;-2.428652714707546E+01;1.408752193972625E+02;5.848689833231489E+01;6.189184458622894E+00;
2.612000000000000E+09;-2.322959600524031E+01;-1.270879796843565E+02;-1.007907044653199E+00;-9.209890104990271E+01;-1.007907044653199E+00;-9.209890104990271E+01;-2.425570541021843E+01;1.400316659078304E+02;5.843657709825393E+01;4.564119327738045E+00;
2.613000000000000E+09;-2.328624999874274E+01;-1.278751542190731E+02;-1.007973105234406E+00;-9.268397508666592E+01;-1.007973105234406E+00;-9.268397508666592E+01;-2.428662041359800E+01;1.393773417064639E+02;5.838824330582237E+01;6.738445105628023E+00;
2.614000000000000E+09;-2.335784672559413E+01;-1.285079900488099E+02;-1.010095132636884E+00;-9.326388309117070E+01;-1.010095132636884E+00;-9.326388309117070E+01;-2.429466152348486E+01;1.391594545088559E+02;5.836791293616612E+01;4.885590321322804E+00;
2.615000000000000E+09;-2.339062938204022E+01;-1.290899047456479E+02;-1.011644109416342E+00;-9.384480214302354E+01;-1.011644109416342E+00;-9.384480214302354E+01;-2.428734179531989E+01;1.388158334193569E+02;5.838207792703359E+01;5.528019980045624E+00;
2.616000000000000E+09;-2.338240741746553E+01;-1.296436375447742E+02;-1.013175998197624E+00;-9.447393434603451E+01;-1.013175998197624E+00;-9.447393434603451E+01;-2.425463189310478E+01;1.383143191172811E+02;5.827808285296265E+01;4.973157133237661E+00;
2.617000000000000E+09;-2.346577279850659E+01;-1.304581901879848E+02;-1.009591857741268E+00;-9.505747125333015E+01;-1.009591857741268E+00;-9.505747125333015E+01;-2.426957762612232E+01;1.378826329199826E+02;5.822395584610802E+01;6.194416941639433E+00;
2.618000000000000E+09;-2.343409460453588E+01;-1.312391616809104E+02;-1.012673808747614E+00;-9.565277565048675E+01;-1.012673808747614E+00;-9.565277565048675E+01;-2.429179654092765E+01;1.372599648445438E+02;5.853409808743628E+01;5.972478458539980E+00;
2.619000000000000E+09;-2.351081716335151E+01;-1.318090824286624E+02;-1.010903695346243E+00;-9.621420411184894E+01;-1.010903695346243E+00;-9.621420411184894E+01;-2.432574150607802E+01;1.367189928788204E+02;5.813362330632052E+01;6.746862766682487E+00;
2.620000000000000E+09;-2.356703541704590E+01;-1.326164288564611E+02;-1.011648704085335E+00;-9.682159834200537E+01;-1.011648704085335E+00;-9.682159834200537E+01;-2.433749016726075E+01;1.365912113022322E+02;5.837168018343047E+01;5.373445545691092E+00;
2.621000000000000E+09;-2.357287100092887E+01;-1.331422138902383E+02;-1.009431327222749E+00;-9.741477111187530E+01;-1.009431327222749E+00;-9.741477111187530E+01;-2.437691150643740E+01;1.358401155569236E+02;5.859201931001635E+01;5.499849942377249E+00;
2.622000000000000E+09;-2.364362590891333E+01;-1.338291287337290E+02;-1.009186776576517E+00;-9.798723158768028E+01;-1.009186776576517E+00;-9.798723158768028E+01;-2.433168398800417E+01;1.356093794826290E+02;5.834685335759836E+01;5.718174643061732E+00;
2.623000000000000E+09;-2.369390062518625E+01;-1.342558998683498E+02;-1.012915237851978E+00;-9.860307793995828E+01;-1.012915237851978E+00;-9.860307793995828E+01;-2.432586399730159E+01;1.347160496983637E+02;5.815098857216499E+01;4.663685051270913E+00;
2.624000000000000E+09;-2.372392585616908E+01;-1.353024777414046E+02;-1.005869305649325E+00;-9.917316918587925E+01;-1.005869305649325E+00;-9.917316918587925E+01;-2.433491651284832E+01;1.345760509710493E+02;5.799836619276549E+01;6.304058770851965E+00;
2.625000000000000E+09;-2.379565385704135E+01;-1.358297498118089E+02;-1.013124731112708E+00;-9.976732375034268E+01;-1.013124731112708E+00;-9.976732375034268E+01;-2.436825165146233E+01;1.340269854550648E+02;5.821253308491895E+01;6.203828628975349E+00;
2.626000000000000E+09;-2.388431129154199E+01;-1.361694802003379E+02;-1.009695809420060E+00;-1.003440746305550E+02;-1.009695809420060E+00;-1.003440746305550E+02;-2.438122080837861E+01;1.339769663267479E+02;5.833397811482696E+01;3.890220828743641E+00;
2.627000000000000E+09;-2.389175598858284E+01;-1.369603872418594E+02;-1.012599011251553E+00;-1.009545686571502E+02;-1.012599011251553E+00;-1.009545686571502E+02;-2.438697265437906E+01;1.332166602129501E+02;5.817769251202016E+01;4.709187061456058E+00;
2.628000000000000E+09;-2.390981479066242E+01;-1.374092498281687E+02;-1.013088795531815E+00;-1.015475697136076E+02;-1.013088795531815E+00;-1.015475697136076E+02;-2.437429568627726E+01;1.328092455542468E+02;5.834870293980530E+01;6.054583152385815E+00;
2.629000000000000E+09;-2.395314603537575E+01;-1.383978236001927E+02;-1.011706855631087E+00;-1.021312197180064E+02;-1.011706855631087E+00;-1.021312197180064E+02;-2.439267095254888E+01;1.325693119593186E+02;5.802162729372444E+01;6.124589800584274E+00;
2.630000000000000E+09;-2.400007960634317E+01;-1.388118356565973E+02;-1.010081222217089E+00;-1.027331944410515E+02;-1.010081222217089E+00;-1.027331944410515E+02;-2.440403784583554E+01;1.316612716658239E+02;5.818550102540765E+01;4.350968177921003E+00;
2.631000000000000E+09;-2.408827789758417E+01;-1.395506726123132E+02;-1.012209747767733E+00;-1.032939004768081E+02;-1.012209747767733E+00;-1.032939004768081E+02;-2.445696768004354E+01;1.314561309366017E+02;5.816837521346063E+01;2.954135612153237E+00;
2.632000000000000E+09;-2.408305069138408E+01;-1.395940656015408E+02;-1.015305667819948E+00;-1.038894736566066E+02;-1.015305667819948E+00;-1.038894736566066E+02;-2.445861381861143E+01;1.308841591929558E+02;5.825543837061537E+01;5.825591583111152E+00;
2.633000000000000E+09;-2.417980803485125E+01;-1.407113734103991E+02;-1.010066365313888E+00;-1.044552028806976E+02;-1.010066365313888E+00;-1.044552028806976E+02;-2.447349553090404E+01;1.307406985467506E+02;5.810208205655582E+01;5.128604592214627E+00;
2.634000000000000E+09;-2.420535216175151E+01;-1.413785678735194E+02;-1.015472348170712E+00;-1.050524277783525E+02;-1.015472348170712E+00;-1.050524277783525E+02;-2.450926042241007E+01;1.300225467693786E+02;5.816707659862345E+01;6.207722181347044E+00;
2.635000000000000E+09;-2.430419196382836E+01;-1.417791910253006E+02;-1.012821108609229E+00;-1.056392871224810E+02;-1.012821108609229E+00;-1.056392871224810E+02;-2.452748955356747E+01;1.296399321074026E+02;5.802783036529759E+01;4.244358740425614E+00;
2.636000000000000E+09;-2.433100547818638E+01;-1.424036435880590E+02;-1.015655476033876E+00;-1.062482953265290E+02;-1.015655476033876E+00;-1.062482953265290E+02;-2.459723088557985E+01;1.294371889694884E+02;5.807564500819788E+01;3.639531825961280E+00;
2.637000000000000E+09;-2.443229153010031E+01;-1.432453336058596E+02;-1.014242952902878E+00;-1.068060383126723E+02;-1.014242952902878E+00;-1.068060383126723E+02;-2.457498376491973E+01;1.285312681151923E+02;5.832557671986812E+01;4.778951078158771E+00;
2.638000000000000E+09;-2.448892196078276E+01;-1.435960708978182E+02;-1.014771891793213E+00;-1.074220913827039E+02;-1.014771891793213E+00;-1.074220913827039E+02;-2.457679606039083E+01;1.283112831190918E+02;5.809602853496310E+01;5.097972413201242E+00;
2.639000000000000E+09;-2.454387688777274E+01;-1.439390079520455E+02;-1.014132363460545E+00;-1.079734633497134E+02;-1.014132363460545E+00;-1.079734633497134E+02;-2.462010856186149E+01;1.277909432149523E+02;5.807624011871382E+01;4.581380359371066E+00;
2.640000000000000E+09;-2.458241136579364E+01;-1.446607641510367E+02;-1.009417907255151E+00;-1.085728028519342E+02;-1.009417907255151E+00;-1.085728028519342E+02;-2.463521649102621E+01;1.273748072905541E+02;5.795713534017342E+01;5.363647116461128E+00;
2.641000000000000E+09;-2.465819595091034E+01;-1.453171171320747E+02;-1.013338700860963E+00;-1.091749118319930E+02;-1.013338700860963E+00;-1.091749118319930E+02;-2.463437655357657E+01;1.269814517381124E+02;5.820988313878594E+01;4.900690046592675E+00;
2.642000000000000E+09;-2.472524429089936E+01;-1.461905851446194E+02;-1.012603191959368E+00;-1.097484676029901E+02;-1.012603191959368E+00;-1.097484676029901E+02;-2.466919227535664E+01;1.263968045777996E+02;5.811632636302949E+01;4.157474013888922E+00;
2.643000000000000E+09;-2.488402023803818E+01;-1.464064296366971E+02;-1.009202587331522E+00;-1.103386088408451E+02;-1.009202587331522E+00;-1.103386088408451E+02;-2.473825240002849E+01;1.261810129477883E+02;5.800132605419322E+01;5.868437964548645E+00;
2.644000000000000E+09;-2.488879682080606E+01;-1.476330572735546E+02;-1.013325173222834E+00;-1.109009710036843E+02;-1.013325173222834E+00;-1.109009710036843E+02;-2.473010746299047E+01;1.256604880957062E+02;5.786451036651129E+01;3.702039381056239E+00;
2.645000000000000E+09;-2.491147561948997E+01;-1.476472494288055E+02;-1.011988836678110E+00;-1.115051927173236E+02;-1.011988836678110E+00;-1.115051927173236E+02;-2.471182818796771E+01;1.250827757604686E+02;5.813748460399562E+01;7.036656875161757E+00;
2.646000000000000E+09;-2.499515239086010E+01;-1.482999699205620E+02;-1.014476047727475E+00;-1.120923386843932E+02;-1.014476047727475E+00;-1.120923386843932E+02;-2.481454156381578E+01;1.246689441723322E+02;5.826787796125744E+01;4.902044261216175E+00;
2.647000000000000E+09;-2.510307713654750E+01;-1.488724213868459E+02;-1.015403117128939E+00;-1.126693403544532E+02;-1.015403117128939E+00;-1.126693403544532E+02;-2.485298880133015E+01;1.242084983959115E+02;5.800014074236816E+01;6.285368804233583E+00;
2.648000000000000E+09;-2.513507657358518E+01;-1.494262706367849E+02;-1.012608569989851E+00;-1.132657221328401E+02;-1.012608569989851E+00;-1.132657221328401E+02;-2.487038474535046E+01;1.238336478539624E+02;5.834532768376513E+01;5.296140643415120E+00;
2.649000000000000E+09;-2.524652858303885E+01;-1.502771455601655E+02;-1.013057077007397E+00;-1.138467168009235E+02;-1.013057077007397E+00;-1.138467168009235E+02;-2.491047261334832E+01;1.231006024564738E+02;5.805062934221652E+01;3.818182847216256E+00;
2.650000000000000E+09;-2.530917896694540E+01;-1.505438782282949E+02;-1.014284610827652E+00;-1.144268191507948E+02;-1.014284610827652E+00;-1.144268191507948E+02;-2.497624099257057E+01;1.227800942730859E+02;5.795530175084826E+01;4.536347147416815E+00;
2.651000000000000E+09;-2.546855353665333E+01;-1.508445647191004E+02;-1.013804878126213E+00;-1.150198471015637E+02;-1.013804878126213E+00;-1.150198471015637E+02;-2.499102323073924E+01;1.225795394707601E+02;5.816968140722526E+01;6.457315665289344E+00;
2.652000000000000E+09;-2.547435782123807E+01;-1.517570595058147E+02;-1.011552784517142E+00;-1.155756240625077E+02;-1.011552784517142E+00;-1.155756240625077E+02;-2.509716538143449E+01;1.220764615876969E+02;5.796677574541118E+01;4.900993875664439E+00;
2.653000000000000E+09;-2.555151702507535E+01;-1.522138423923264E+02;-1.012532978217058E+00;-1.161777468777283E+02;-1.012532978217058E+00;-1.161777468777283E+02;-2.510654022438110E+01;1.213139450620395E+02;5.801004406961546E+01;5.448408850315023E+00;
2.654000000000000E+09;-2.569760395518759E+01;-1.528627051801923E+02;-1.011758469777934E+00;-1.167894697854669E+02;-1.011758469777934E+00;-1.167894697854669E+02;-2.508998084222821E+01;1.214454595884954E+02;5.788779320853187E+01;4.081854202332849E+00;
2.655000000000000E+09;-2.575693317806727E+01;-1.536463037994328E+02;-1.009961218548722E+00;-1.173404480239983E+02;-1.009961218548722E+00;-1.173404480239983E+02;-2.512912800960819E+01;1.205787701118658E+02;5.823705942649006E+01;5.104994788072760E+00;
2.656000000000000E+09;-2.588329177843379E+01;-1.536721702046947E+02;-1.014007486921331E+00;-1.179695171727653E+02;-1.014007486921331E+00;-1.179695171727653E+02;-2.521036697248205E+01;1.204316320440352E+02;5.772419144309915E+01;5.610822130322293E+00;
2.657000000000000E+09;-2.596628039097001E+01;-1.539596517345461E+02;-1.011663271541120E+00;-1.185549338153995E+02;-1.011663271541120E+00;-1.185549338153995E+02;-2.527623087491037E+01;1.195320124621267E+02;5.795500611066817E+01;4.371936455649457E+00;
2.658000000000000E+09;-2.611126669903939E+01;-1.547989619571287E+02;-1.010780978853560E+00;-1.191455648155305E+02;-1.010780978853560E+00;-1.191455648155305E+02;-2.532633108987103E+01;1.194051379906887E+02;5.809886598366624E+01;6.475649863175029E+00;
2.659000000000000E+09;-2.611672371518448E+01;-1.552686252454731E+02;-1.012963815938607E+00;-1.197313126249138E+02;-1.012963815938607E+00;-1.197313126249138E+02;-2.533690997133355E+01;1.186712373177494E+02;5.808352544276286E+01;5.187042306322565E+00;
2.660000000000000E+09;-2.625488910318207E+01;-1.560062869724138E+02;-1.013612025892905E+00;-1.202844174668591E+02;-1.013612025892905E+00;-1.202844174668591E+02;-2.537831839572902E+01;1.183394173998130E+02;5.810147715118117E+01;4.572714816425814E+00;
2.661000000000000E+09;-2.635996629934958E+01;-1.564527930160026E+02;-1.009408642493852E+00;-1.208930120043836E+02;-1.009408642493852E+00;-1.208930120043836E+02;-2.546992987782598E+01;1.181632894397193E+02;5.791734126364932E+01;4.741355950815885E+00;
2.662000000000000E+09;-2.648280402629065E+01;-1.570117157395839E+02;-1.008242119293604E+00;-1.214538367737522E+02;-1.008242119293604E+00;-1.214538367737522E+02;-2.553106145448684E+01;1.174158437580890E+02;5.794095549871867E+01;5.103023706999832E+00;
2.663000000000000E+09;-2.655200836329880E+01;-1.573308668960652E+02;-1.011337865808446E+00;-1.220552327794525E+02;-1.011337865808446E+00;-1.220552327794525E+02;-2.559298012084098E+01;1.172560980337218E+02;5.795536077877777E+01;5.140262738714396E+00;
2.664000000000000E+09;-2.670332238587781E+01;-1.576874950964046E+02;-1.012971184356590E+00;-1.226272141476874E+02;-1.012971184356590E+00;-1.226272141476874E+02;-2.570049269695980E+01;1.166843717059955E+02;5.790446257444437E+01;4.959098138525524E+00;
2.665000000000000E+09;-2.677069931828520E+01;-1.583590167355942E+02;-1.012249767562450E+00;-1.232084337687913E+02;-1.012249767562450E+00;-1.232084337687913E+02;-2.573011696519275E+01;1.162948857424480E+02;5.794946853965718E+01;4.923435168510993E+00;
2.666000000000000E+09;-2.696073527292798E+01;-1.590950013687836E+02;-1.009903228450784E+00;-1.238380814568307E+02;-1.009903228450784E+00;-1.238380814568307E+02;-2.576231459734563E+01;1.155249096533475E+02;5.790900988108596E+01;3.494427392867411E+00;
2.667000000000000E+09;-2.702188004636940E+01;-1.596692307230988E+02;-1.008802031884083E+00;-1.243845328496593E+02;-1.008802031884083E+00;-1.243845328496593E+02;-2.580997658788839E+01;1.153163484703965E+02;5.791187863201050E+01;3.423363333398486E+00;
2.668000000000000E+09;-2.718244585633565E+01;-1.601557541341577E+02;-1.011093160573895E+00;-1.250012942783639E+02;-1.011093160573895E+00;-1.250012942783639E+02;-2.586573761227114E+01;1.149918808600088E+02;5.761316168780220E+01;6.325299425522148E+00;
2.669000000000000E+09;-2.731983403362013E+01;-1.607476903623545E+02;-1.014137777414927E+00;-1.255635626744294E+02;-1.014137777414927E+00;-1.255635626744294E+02;-2.593480102075906E+01;1.144562256474214E+02;5.800201859097073E+01;3.813849275107674E+00;
2.670000000000000E+09;-2.741100876614320E+01;-1.611179300467943E+02;-1.010276023330823E+00;-1.261675708289330E+02;-1.010276023330823E+00;-1.261675708289330E+02;-2.600270252036912E+01;1.140056024551267E+02;5.775318692689324E+01;5.991383054446369E+00;
2.671000000000000E+09;-2.756656631745102E+01;-1.614704585091179E+02;-1.012229697435048E+00;-1.267413261650779E+02;-1.012229697435048E+00;-1.267413261650779E+02;-2.613223388257038E+01;1.134644439229541E+02;5.781750833733831E+01;6.215448911108260E+00;
2.672000000000000E+09;-2.770177847389953E+01;-1.621452935157961E+02;-1.012511833338959E+00;-1.273402241680100E+02;-1.012511833338959E+00;-1.273402241680100E+02;-2.617544735208995E+01;1.128589790467723E+02;5.784325448235606E+01;5.390595260868299E+00;
2.673000000000000E+09;-2.787133022671429E+01;-1.626543944101614E+02;-1.007756497665461E+00;-1.279106662683596E+02;-1.007756497665461E+00;-1.279106662683596E+02;-2.624870947018037E+01;1.129733236792356E+02;5.796130784342413E+01;6.244116671508950E+00;
2.674000000000000E+09;-2.803454707740043E+01;-1.631433291476468E+02;-1.010679547837370E+00;-1.285083372760985E+02;-1.010679547837370E+00;-1.285083372760985E+02;-2.626189238307408E+01;1.116347789214761E+02;5.771977006712611E+01;5.116780698280438E+00;
2.675000000000000E+09;-2.821557266591865E+01;-1.633699809635971E+02;-1.012886421121999E+00;-1.290749937285027E+02;-1.012886421121999E+00;-1.290749937285027E+02;-2.633468755391043E+01;1.116787455773623E+02;5.776903373118494E+01;3.838954583520635E+00;
2.676000000000000E+09;-2.830367410116867E+01;-1.641244218851999E+02;-1.010034677435290E+00;-1.296472686991767E+02;-1.010034677435290E+00;-1.296472686991767E+02;-2.643009723529620E+01;1.109570391189967E+02;5.768220530840992E+01;4.404550732891151E+00;
2.677000000000000E+09;-2.840412136411592E+01;-1.644320420245191E+02;-1.015935264310844E+00;-1.302544782400455E+02;-1.015935264310844E+00;-1.302544782400455E+02;-2.647581940777322E+01;1.106580742410986E+02;5.796577398231858E+01;4.468388898057590E+00;
2.678000000000000E+09;-2.861270880023397E+01;-1.653194908735258E+02;-1.010914173286160E+00;-1.308519646857140E+02;-1.010914173286160E+00;-1.308519646857140E+02;-2.652654699177834E+01;1.099674174940441E+02;5.779657240996648E+01;6.212149279692452E+00;
