#  HZ   S   DB   R     50.00 
! Rohde & Schwarz Vector Network Analyzer 
! Rohde-Schwarz,ZNB8-2Port,1311601042101540,3.40
! Created: UTC 6/27/2024, 1:53:15 PM
! freq[Hz]                db:S11                  ang:S11                 db:S21                  ang:S21                 db:S12                  ang:S12                 db:S22                  ang:S22
 2.600000000000000E9    -2.292784104823593E1    -1.181021730562592E2    -1.034412653527716      -8.572393423811069E1    -1.082999652495758      -8.602619295263133E1    -2.428905219622921E1     1.462300740074227E2
 2.601000000000000E9    -2.293151367752744E1    -1.190863736323563E2    -1.026492052472080      -8.598926098731191E1    -1.079452440460660      -8.666427389267390E1    -2.426019472980567E1     1.457795177768010E2
 2.602000000000000E9    -2.298657598679625E1    -1.199776088270653E2    -1.018150639792578      -8.641896065704556E1    -1.077357500989772      -8.725540079864440E1    -2.430237675183761E1     1.445790359758699E2
 2.603000000000000E9    -2.298727493057826E1    -1.203601127440133E2    -1.023272623040604      -8.691928089833034E1    -1.077634853048583      -8.782033902297944E1    -2.428085130961287E1     1.443614492076601E2
 2.604000000000000E9    -2.305313262402553E1    -1.215878022308674E2    -1.018855872162298      -8.748145888134106E1    -1.076228938038857      -8.846315542162709E1    -2.431894352636866E1     1.439222788706473E2
 2.605000000000000E9    -2.306303680498344E1    -1.220590551286089E2    -1.018172409576397      -8.803643976133186E1    -1.075867829987366      -8.901404705097144E1    -2.424933358554203E1     1.432464803437840E2
 2.606000000000000E9    -2.304439611133402E1    -1.228287650529627E2    -1.020029909936067      -8.864205554225897E1    -1.069886537272291      -8.962048288502938E1    -2.431574452012084E1     1.428577541566371E2
 2.607000000000000E9    -2.315546318799115E1    -1.237300372647759E2    -1.021576696415486      -8.921798816410303E1    -1.074326421064480      -9.019620919871251E1    -2.433802934913977E1     1.425133835018634E2
 2.608000000000000E9    -2.319896563190425E1    -1.243631680071396E2    -1.021389078102559      -8.979400250163739E1    -1.072663804859979      -9.080378399345820E1    -2.434285141901592E1     1.420422564641650E2
 2.609000000000000E9    -2.317501773365845E1    -1.251302571036591E2    -1.018507379364103      -9.040497520274090E1    -1.074099394898584      -9.138123525893555E1    -2.427390510905742E1     1.417132366188059E2
 2.610000000000000E9    -2.318193491732090E1    -1.259593577053938E2    -1.017074683515049      -9.101378407784210E1    -1.070893832581335      -9.197064695357611E1    -2.428302839619033E1     1.410438385277915E2
 2.611000000000000E9    -2.325750257467700E1    -1.261332190388943E2    -1.019689362173916      -9.157939804388495E1    -1.071983522821157      -9.257541727144904E1    -2.427617789837100E1     1.406410609334900E2
 2.612000000000000E9    -2.327742218347796E1    -1.270950290576774E2    -1.013572638877560      -9.215206397023691E1    -1.073013083012421      -9.316354798703496E1    -2.429963098909960E1     1.398193285554198E2
 2.613000000000000E9    -2.333671546552396E1    -1.278451069080015E2    -1.016080553355402      -9.279447136844900E1    -1.069092464194846      -9.374371006695057E1    -2.429030781555128E1     1.395979758243983E2
 2.614000000000000E9    -2.341584356968668E1    -1.282873744396759E2    -1.016973145377801      -9.333988809174006E1    -1.074313214376694      -9.433922520771763E1    -2.428764053218975E1     1.392559241571487E2
 2.615000000000000E9    -2.344083068454322E1    -1.290716584013157E2    -1.019300208374724      -9.392891431605447E1    -1.070570184677936      -9.492762916680489E1    -2.430622544490490E1     1.387581388910242E2
 2.616000000000000E9    -2.346194957180025E1    -1.298130694635169E2    -1.019405063370475      -9.454570372452308E1    -1.073095726822491      -9.549385611528795E1    -2.431800549656617E1     1.382626434211110E2
 2.617000000000000E9    -2.346833839121149E1    -1.305993208228560E2    -1.018334670180859      -9.512464637576764E1    -1.074131448284073      -9.609245861552509E1    -2.431535808751096E1     1.378388098669303E2
 2.618000000000000E9    -2.350599003783730E1    -1.311573037852793E2    -1.025257639162993      -9.571256688871892E1    -1.069726300558112      -9.666811421467557E1    -2.438670061576369E1     1.374686358220620E2
 2.619000000000000E9    -2.355394856929473E1    -1.316154930149199E2    -1.019661848306090      -9.628557922489905E1    -1.074749640511546      -9.727296510474611E1    -2.433149873091636E1     1.367935487379706E2
 2.620000000000000E9    -2.357208622814301E1    -1.324874082924815E2    -1.017305366134615      -9.690362890027414E1    -1.069712260585185      -9.783533097210000E1    -2.433153315697316E1     1.365159842463974E2
 2.621000000000000E9    -2.361170651923757E1    -1.329936148786066E2    -1.020371342453605      -9.750169918877957E1    -1.068890677456237      -9.845478487643105E1    -2.434085129738671E1     1.357365710033124E2
 2.622000000000000E9    -2.369275453869051E1    -1.335841775728020E2    -1.017451350739451      -9.808591744898514E1    -1.073940236879222      -9.903132930384683E1    -2.432066991088735E1     1.355572964804314E2
 2.623000000000000E9    -2.375411356849526E1    -1.343817649803431E2    -1.021363308286005      -9.867404036549520E1    -1.072821010473828      -9.961599456620954E1    -2.436236352923146E1     1.349560698133762E2
 2.624000000000000E9    -2.376550776538731E1    -1.350167504211438E2    -1.020347160795089      -9.928044953569936E1    -1.071441132995761      -1.002316587274537E2    -2.438558803330551E1     1.345598173434120E2
 2.625000000000000E9    -2.380854303012912E1    -1.357916268336426E2    -1.020378846581418      -9.985578507769573E1    -1.071029882243314      -1.008000464776549E2    -2.436625578035565E1     1.341802423300672E2
 2.626000000000000E9    -2.391997276698101E1    -1.360655093132675E2    -1.020715566522918      -1.004292606426594E2    -1.073707818809515      -1.013786323888010E2    -2.439896067357976E1     1.337700654736771E2
 2.627000000000000E9    -2.393406674237596E1    -1.368367916182669E2    -1.021730828866078      -1.010393946351596E2    -1.072359041236850      -1.019863744454418E2    -2.442141926913164E1     1.331576312857506E2
 2.628000000000000E9    -2.398606411851292E1    -1.373304500583114E2    -1.020137150445728      -1.016169049031293E2    -1.070392231480730      -1.025993003567244E2    -2.439573460863179E1     1.329066878586994E2
 2.629000000000000E9    -2.399676282416312E1    -1.383420530563506E2    -1.020990432143900      -1.022230002833723E2    -1.068125548527236      -1.031835264926622E2    -2.442976401629883E1     1.321240802912629E2
 2.630000000000000E9    -2.406313459677295E1    -1.387941462398479E2    -1.027053311176597      -1.028226050547757E2    -1.072733591182526      -1.037484225251136E2    -2.445542452619027E1     1.318988657020157E2
 2.631000000000000E9    -2.415881255536551E1    -1.394194502123553E2    -1.021708714448474      -1.033888286648421E2    -1.073730986631981      -1.043287797304423E2    -2.445241671867961E1     1.313208416055828E2
 2.632000000000000E9    -2.417817722256587E1    -1.399499559621063E2    -1.021080654859914      -1.039488757845084E2    -1.069662033394544      -1.049310703596860E2    -2.446165523578068E1     1.311747558064323E2
 2.633000000000000E9    -2.417206989267227E1    -1.406181352805974E2    -1.018128377180396      -1.045431448053802E2    -1.075306451736084      -1.054946358305560E2    -2.451253977252651E1     1.306882356144906E2
 2.634000000000000E9    -2.429003389022292E1    -1.413396829239304E2    -1.023920280030775      -1.051534378385108E2    -1.071860244854978      -1.060865189786528E2    -2.448177532145617E1     1.300590970119960E2
 2.635000000000000E9    -2.432578605524974E1    -1.417608527799599E2    -1.022766730294111      -1.057249879640163E2    -1.071395259763587      -1.066408170399017E2    -2.453226072162087E1     1.295632357952493E2
 2.636000000000000E9    -2.440479507481024E1    -1.423756677570471E2    -1.023739673409845      -1.063467810384541E2    -1.072392048427244      -1.072634470476208E2    -2.454260740249985E1     1.295431516964132E2
 2.637000000000000E9    -2.444361809239320E1    -1.430018614949028E2    -1.021451165448931      -1.069087797029620E2    -1.067150453018243      -1.078547769892878E2    -2.457493720745973E1     1.282585682702180E2
 2.638000000000000E9    -2.455641328438130E1    -1.437130689040471E2    -1.023010625478930      -1.075058272147255E2    -1.069223577692360      -1.084407771518737E2    -2.461587472879377E1     1.280210987536923E2
 2.639000000000000E9    -2.456922131763179E1    -1.437922903348225E2    -1.022779695232319      -1.080752552849728E2    -1.066677055233332      -1.089813420765815E2    -2.461877667777952E1     1.279523094711284E2
 2.640000000000000E9    -2.465494606611152E1    -1.449527298548559E2    -1.020530527271081      -1.086545410829035E2    -1.066500661504835      -1.095731305570405E2    -2.467569976000220E1     1.269778771895382E2
 2.641000000000000E9    -2.465905572371634E1    -1.452724878324292E2    -1.019875879624753      -1.092497570858993E2    -1.069118318913666      -1.101787949455702E2    -2.464825542821062E1     1.267538333847663E2
 2.642000000000000E9    -2.477357841882446E1    -1.456292858758690E2    -1.021067367470901      -1.098221558899694E2    -1.065919062109806      -1.107587448866566E2    -2.466420765683482E1     1.262769833104231E2
 2.643000000000000E9    -2.490386999006844E1    -1.465367357273314E2    -1.019289667341259      -1.104207297572399E2    -1.071368396943415      -1.113408952730410E2    -2.474100941703526E1     1.259980269753161E2
 2.644000000000000E9    -2.492639441944284E1    -1.472069450509914E2    -1.021173544122279      -1.110096759859058E2    -1.074113788427911      -1.119289705976500E2    -2.474786373995294E1     1.259197706951094E2
 2.645000000000000E9    -2.497246436550390E1    -1.477580759610314E2    -1.021519438131035      -1.115943075865383E2    -1.068515918469205      -1.125200435045551E2    -2.477119721596033E1     1.251002272391433E2
 2.646000000000000E9    -2.506926628186641E1    -1.481206144654509E2    -1.019410540167373      -1.121914787680946E2    -1.069901662221792      -1.131033363184226E2    -2.482016262457385E1     1.248228232739133E2
 2.647000000000000E9    -2.512512172546971E1    -1.488819903188192E2    -1.022608123064569      -1.127792477450197E2    -1.069439451568920      -1.136999273057167E2    -2.483842052243950E1     1.242073406912949E2
 2.648000000000000E9    -2.521401173728518E1    -1.493143495179169E2    -1.024335536850737      -1.133535365425126E2    -1.070305629081968      -1.142846894236082E2    -2.489075913027996E1     1.238377736615547E2
 2.649000000000000E9    -2.527669927654786E1    -1.499624468668194E2    -1.021000119194456      -1.139339855951786E2    -1.069995230713316      -1.148591977873873E2    -2.493227846078948E1     1.234105266072304E2
 2.650000000000000E9    -2.539500619324558E1    -1.504963868656639E2    -1.025266527209078      -1.145244679867063E2    -1.071316669427524      -1.154634068293858E2    -2.495796625154910E1     1.224579203739758E2
 2.651000000000000E9    -2.548871268808520E1    -1.506609184397356E2    -1.023995692746558      -1.151128660015806E2    -1.071768846724418      -1.160426122395568E2    -2.500787744755011E1     1.222977618307080E2
 2.652000000000000E9    -2.555042257909535E1    -1.518813615630944E2    -1.021627391675086      -1.156659687971468E2    -1.067780009761212      -1.166213045216724E2    -2.509364208823423E1     1.219856904924039E2
 2.653000000000000E9    -2.560451402365948E1    -1.520727781144071E2    -1.019971186131244      -1.162799349290974E2    -1.069191396036189      -1.172055350324257E2    -2.510232124776379E1     1.215739936593180E2
 2.654000000000000E9    -2.574466636779530E1    -1.527286955329546E2    -1.026345527164209      -1.168505927477205E2    -1.068465492266896      -1.178444084517577E2    -2.514167170546069E1     1.209028447970562E2
 2.655000000000000E9    -2.581254005192378E1    -1.533097752807712E2    -1.016872704084645      -1.174126597600320E2    -1.070098949990752      -1.184036018324763E2    -2.517711071475261E1     1.207534490936663E2
 2.656000000000000E9    -2.598139748366243E1    -1.538353176728554E2    -1.023156417877856      -1.180497681373391E2    -1.071760489353597      -1.189954612079965E2    -2.520894985071196E1     1.202928517056472E2
 2.657000000000000E9    -2.602495706196099E1    -1.542575111497490E2    -1.025154851386676      -1.186184120328412E2    -1.070232014865715      -1.195517714806486E2    -2.524138667431717E1     1.195534009123703E2
 2.658000000000000E9    -2.611011610633781E1    -1.551298862474807E2    -1.019470397321187      -1.192126776087181E2    -1.069500330467063      -1.201491400360683E2    -2.531007184182791E1     1.194483070513933E2
 2.659000000000000E9    -2.613062041261404E1    -1.553927252167992E2    -1.019708095431638      -1.197674837839553E2    -1.069349216461652      -1.207383251072685E2    -2.538742525755801E1     1.184285025734810E2
 2.660000000000000E9    -2.632303914367463E1    -1.561002901155700E2    -1.020086453132341      -1.203776832515000E2    -1.068150045595099      -1.213269207861070E2    -2.541796530182980E1     1.181770849356776E2
 2.661000000000000E9    -2.638579661701881E1    -1.563478535981415E2    -1.018989118528680      -1.209595775599668E2    -1.067819704558291      -1.219161221551239E2    -2.546180789609955E1     1.178250930863024E2
 2.662000000000000E9    -2.655317127490552E1    -1.571966429209097E2    -1.021039305289258      -1.215332945030614E2    -1.072119240561578      -1.225019378946103E2    -2.555259054316218E1     1.171794967624203E2
 2.663000000000000E9    -2.669091896606488E1    -1.574293854591795E2    -1.022792460710364      -1.221191745473453E2    -1.070440460114860      -1.230777670842100E2    -2.560028570965983E1     1.171525750339846E2
 2.664000000000000E9    -2.676220863954129E1    -1.578104134254585E2    -1.020762162354490      -1.227178699025610E2    -1.065490249356202      -1.236785360061046E2    -2.565720265476257E1     1.166735515769387E2
 2.665000000000000E9    -2.684317396415565E1    -1.585337206658320E2    -1.022952820881098      -1.232862238526089E2    -1.068845830467887      -1.242564191806547E2    -2.573794831978167E1     1.160075685800182E2
 2.666000000000000E9    -2.697678534441924E1    -1.587766613496081E2    -1.018776993140954      -1.239243424849180E2    -1.069092821341614      -1.248321307542163E2    -2.573065812622490E1     1.158889748207722E2
 2.667000000000000E9    -2.707581680573961E1    -1.594916523315229E2    -1.018616509787373      -1.244739078994017E2    -1.068421739781621      -1.254175642763709E2    -2.578457018332572E1     1.149628504110774E2
 2.668000000000000E9    -2.725730762021152E1    -1.600093321136690E2    -1.019682738674410      -1.250745214822230E2    -1.064955719898492      -1.260303745518871E2    -2.592772109317312E1     1.147173302310259E2
 2.669000000000000E9    -2.743304771301115E1    -1.607425325286465E2    -1.021927859920119      -1.256534550574498E2    -1.068830412707288      -1.265820400683292E2    -2.599388347539365E1     1.145647050654734E2
 2.670000000000000E9    -2.749130039579566E1    -1.605802150291194E2    -1.019729196125138      -1.262440773796893E2    -1.068135458142883      -1.271425509470095E2    -2.598062346085609E1     1.139295707402433E2
 2.671000000000000E9    -2.764996731968864E1    -1.615293485336573E2    -1.022449750556683      -1.268184550392415E2    -1.068206268814401      -1.277555878490484E2    -2.615416475124354E1     1.132610115135129E2
 2.672000000000000E9    -2.774829494669517E1    -1.620037898667111E2    -1.019917339340461      -1.274085732897938E2    -1.066828565402975      -1.283742463149372E2    -2.613384324801650E1     1.127096744665570E2
 2.673000000000000E9    -2.796855352402843E1    -1.624263925380142E2    -1.023044377756708      -1.279761853808495E2    -1.067306128861041      -1.289368845996009E2    -2.627888256229803E1     1.127818528592055E2
 2.674000000000000E9    -2.813171651302178E1    -1.632783292159009E2    -1.014704717402967      -1.285969966048879E2    -1.066880101239444      -1.295420987062536E2    -2.627477643211372E1     1.116236571547366E2
 2.675000000000000E9    -2.825886997516974E1    -1.635162396876625E2    -1.018003121082122      -1.291399430519361E2    -1.068611038873729      -1.301269681349521E2    -2.635167335589149E1     1.112601489085751E2
 2.676000000000000E9    -2.839846097622427E1    -1.640608737741511E2    -1.019972033417067      -1.297450653891533E2    -1.067598717717747      -1.306889326175754E2    -2.636633438071705E1     1.111685269485498E2
 2.677000000000000E9    -2.856025988120621E1    -1.644344674476817E2    -1.019197424608139      -1.303473819478658E2    -1.069333365157347      -1.312701837243443E2    -2.651262866959477E1     1.104143302091947E2
 2.678000000000000E9    -2.869577124935022E1    -1.652399726500546E2    -1.020625436689664      -1.309042829683493E2    -1.068047614756848      -1.318886423154524E2    -2.655495652481333E1     1.099640912439045E2
 2.679000000000000E9    -2.884121944319764E1    -1.654038568204199E2    -1.023570186458220      -1.315026131563887E2    -1.071071242709740      -1.324794214766357E2    -2.671985246094772E1     1.101220808185428E2
 2.680000000000000E9    -2.906885737137999E1    -1.666051002157380E2    -1.019833095426833      -1.320522109942875E2    -1.068627132237470      -1.330548983362319E2    -2.684303163713498E1     1.096738300147706E2
 2.681000000000000E9    -2.913940138023414E1    -1.671456936733161E2    -1.022182992907451      -1.326684977658035E2    -1.063804410123342      -1.336510529276410E2    -2.679817812934512E1     1.084090112407534E2
 2.682000000000000E9    -2.930164692835939E1    -1.669180120931710E2    -1.020822062164682      -1.332417272189306E2    -1.065405253465781      -1.342369578626173E2    -2.690736915711024E1     1.085843579352941E2
 2.683000000000000E9    -2.953604277703832E1    -1.671070276078876E2    -1.020700796297299      -1.338390632415844E2    -1.066278297473073      -1.348448346844605E2    -2.703449398660610E1     1.073711522585729E2
 2.684000000000000E9    -2.974600809700913E1    -1.676304012188810E2    -1.020655334268512      -1.344272635175796E2    -1.064160222223987      -1.354453440580409E2    -2.707522691027002E1     1.074354305522860E2
 2.685000000000000E9    -2.997214697542186E1    -1.690454272365307E2    -1.020026695707692      -1.350219244214489E2    -1.064249603326970      -1.360075482688995E2    -2.714524777354786E1     1.075311591613769E2
 2.686000000000000E9    -3.011160719797088E1    -1.692306591645122E2    -1.017126876069002      -1.355768658191963E2    -1.069167475119286      -1.365754493669790E2    -2.730932719216848E1     1.065797382072396E2
 2.687000000000000E9    -3.028415338569894E1    -1.698484436862536E2    -1.017722254393841      -1.361836752437826E2    -1.066464203012985      -1.371995994604861E2    -2.734615635745804E1     1.058369399792319E2
 2.688000000000000E9    -3.065052590130685E1    -1.692509638577617E2    -1.017855692047697      -1.367679122804069E2    -1.066003709411074      -1.377832902437944E2    -2.749180973846835E1     1.053823242319532E2
 2.689000000000000E9    -3.073831828054558E1    -1.701332653153339E2    -1.017865516286172      -1.373617175557289E2    -1.068937717169119      -1.383874473326885E2    -2.759147556282178E1     1.051694307775562E2
 2.690000000000000E9    -3.101298180602264E1    -1.714736359645570E2    -1.020641148512709      -1.379459365632685E2    -1.065400348461833      -1.389667273761333E2    -2.771386659105861E1     1.047739573884205E2
 2.691000000000000E9    -3.113407670071709E1    -1.721128329812344E2    -1.022859613431907      -1.385483071596674E2    -1.068374729415452      -1.395668435004440E2    -2.780353536972789E1     1.041673151036235E2
